# vsim -vopt work.axi_master_top -voptargs="+acc=npr" -assertdebug "+UVM_TESTNAME=axi_master_read_8b_test" "+UVM_VERBOSITY=UVM_MEDIUM" -l axi_master_read_8b_test_30012024-100759/axi_master_read_8b_test.log -sva -coverage -c -do "log -r /*; add wave -r /*; coverage save -onexit -assert -directive -cvg -codeAll axi_master_read_8b_test_30012024-100759/axi_master_read_8b_test_coverage.ucdb; run -all; exit" -wlf axi_master_read_8b_test_30012024-100759/waveform.wlf 
# Start time: 10:08:00 on Jan 30,2024
# ** Note: (vsim-8009) Loading existing optimized design _opt
# //  Questa Sim
# //  Version 10.6c linux Jul 25 2017
# //
# //  Copyright 1991-2017 Mentor Graphics Corporation
# //  All Rights Reserved.
# //
# //  QuestaSim and its associated documentation contain trade
# //  secrets and commercial or financial information that are the property of
# //  Mentor Graphics Corporation and are privileged, confidential,
# //  and exempt from disclosure under the Freedom of Information Act,
# //  5 U.S.C. Section 552. Furthermore, this information
# //  is prohibited from disclosure under the Trade Secrets Act,
# //  18 U.S.C. Section 1905.
# //
# Loading sv_std.std
# Loading work.axi_master_interface(fast)
# Loading work.axi4_globals_pkg(fast)
# Loading mtiUvm.uvm_pkg
# Loading work.axi_master_pkg(fast)
# Loading work.axi_sequence_pkg(fast)
# Loading work.axi_env_pkg(fast)
# Loading work.axi_test_pkg(fast)
# Loading work.axi_master_top_sv_unit(fast)
# Loading work.axi_master_top(fast)
# Loading work.axi_master_interface(fast)
# Loading work.axi_ram(fast)
# Loading mtiUvm.questa_uvm_pkg(fast)
# ** Warning: (vsim-8637) ../../src/tb/master//axi_master_monitor.sv(63): A modport ('axi_master_mo_mp') should not be used in a hierarchical path.
#    Time: 0 ps  Iteration: 0  Region: /axi_master_pkg File: ../../src/tb/master/axi_master_pkg.sv
# ** Warning: (vsim-8637) ../../src/tb/master//axi_master_monitor.sv(182): A modport ('axi_master_mo_mp') should not be used in a hierarchical path.
#    Time: 0 ps  Iteration: 0  Region: /axi_master_pkg File: ../../src/tb/master/axi_master_pkg.sv
# ** Warning: (vsim-8637) ../../src/tb/master//axi_master_monitor.sv(182): A modport ('axi_master_mo_mp') should not be used in a hierarchical path.
#    Time: 0 ps  Iteration: 0  Region: /axi_master_pkg File: ../../src/tb/master/axi_master_pkg.sv
# ** Warning: (vsim-8637) ../../src/tb/master//axi_master_monitor.sv(155): A modport ('axi_master_mo_mp') should not be used in a hierarchical path.
#    Time: 0 ps  Iteration: 0  Region: /axi_master_pkg File: ../../src/tb/master/axi_master_pkg.sv
# ** Warning: (vsim-8637) ../../src/tb/master//axi_master_monitor.sv(155): A modport ('axi_master_mo_mp') should not be used in a hierarchical path.
#    Time: 0 ps  Iteration: 0  Region: /axi_master_pkg File: ../../src/tb/master/axi_master_pkg.sv
# ** Warning: (vsim-8637) ../../src/tb/master//axi_master_monitor.sv(136): A modport ('axi_master_mo_mp') should not be used in a hierarchical path.
#    Time: 0 ps  Iteration: 0  Region: /axi_master_pkg File: ../../src/tb/master/axi_master_pkg.sv
# ** Warning: (vsim-8637) ../../src/tb/master//axi_master_monitor.sv(136): A modport ('axi_master_mo_mp') should not be used in a hierarchical path.
#    Time: 0 ps  Iteration: 0  Region: /axi_master_pkg File: ../../src/tb/master/axi_master_pkg.sv
# ** Warning: (vsim-8637) ../../src/tb/master//axi_master_monitor.sv(105): A modport ('axi_master_mo_mp') should not be used in a hierarchical path.
#    Time: 0 ps  Iteration: 0  Region: /axi_master_pkg File: ../../src/tb/master/axi_master_pkg.sv
# ** Warning: (vsim-8637) ../../src/tb/master//axi_master_monitor.sv(105): A modport ('axi_master_mo_mp') should not be used in a hierarchical path.
#    Time: 0 ps  Iteration: 0  Region: /axi_master_pkg File: ../../src/tb/master/axi_master_pkg.sv
# ** Warning: (vsim-8637) ../../src/tb/master//axi_master_monitor.sv(76): A modport ('axi_master_mo_mp') should not be used in a hierarchical path.
#    Time: 0 ps  Iteration: 0  Region: /axi_master_pkg File: ../../src/tb/master/axi_master_pkg.sv
# ** Warning: (vsim-8637) ../../src/tb/master//axi_master_monitor.sv(76): A modport ('axi_master_mo_mp') should not be used in a hierarchical path.
#    Time: 0 ps  Iteration: 0  Region: /axi_master_pkg File: ../../src/tb/master/axi_master_pkg.sv
# ** Warning: (vsim-8637) ../../src/tb/master//axi_master_monitor.sv(63): A modport ('axi_master_mo_mp') should not be used in a hierarchical path.
#    Time: 0 ps  Iteration: 0  Region: /axi_master_pkg File: ../../src/tb/master/axi_master_pkg.sv
# ** Warning: (vsim-8637) ../../src/tb/master//axi_master_monitor.sv(195): A modport ('axi_master_mo_mp') should not be used in a hierarchical path.
#    Time: 0 ps  Iteration: 0  Region: /axi_master_pkg File: ../../src/tb/master/axi_master_pkg.sv
# ** Warning: (vsim-8637) ../../src/tb/master//axi_master_monitor.sv(194): A modport ('axi_master_mo_mp') should not be used in a hierarchical path.
#    Time: 0 ps  Iteration: 0  Region: /axi_master_pkg File: ../../src/tb/master/axi_master_pkg.sv
# ** Warning: (vsim-8637) ../../src/tb/master//axi_master_monitor.sv(192): A modport ('axi_master_mo_mp') should not be used in a hierarchical path.
#    Time: 0 ps  Iteration: 0  Region: /axi_master_pkg File: ../../src/tb/master/axi_master_pkg.sv
# ** Warning: (vsim-8637) ../../src/tb/master//axi_master_monitor.sv(182): A modport ('axi_master_mo_mp') should not be used in a hierarchical path.
#    Time: 0 ps  Iteration: 0  Region: /axi_master_pkg File: ../../src/tb/master/axi_master_pkg.sv
# ** Warning: (vsim-8637) ../../src/tb/master//axi_master_monitor.sv(182): A modport ('axi_master_mo_mp') should not be used in a hierarchical path.
#    Time: 0 ps  Iteration: 0  Region: /axi_master_pkg File: ../../src/tb/master/axi_master_pkg.sv
# ** Warning: (vsim-8637) ../../src/tb/master//axi_master_monitor.sv(173): A modport ('axi_master_mo_mp') should not be used in a hierarchical path.
#    Time: 0 ps  Iteration: 0  Region: /axi_master_pkg File: ../../src/tb/master/axi_master_pkg.sv
# ** Warning: (vsim-8637) ../../src/tb/master//axi_master_monitor.sv(172): A modport ('axi_master_mo_mp') should not be used in a hierarchical path.
#    Time: 0 ps  Iteration: 0  Region: /axi_master_pkg File: ../../src/tb/master/axi_master_pkg.sv
# ** Warning: (vsim-8637) ../../src/tb/master//axi_master_monitor.sv(171): A modport ('axi_master_mo_mp') should not be used in a hierarchical path.
#    Time: 0 ps  Iteration: 0  Region: /axi_master_pkg File: ../../src/tb/master/axi_master_pkg.sv
# ** Warning: (vsim-8637) ../../src/tb/master//axi_master_monitor.sv(170): A modport ('axi_master_mo_mp') should not be used in a hierarchical path.
#    Time: 0 ps  Iteration: 0  Region: /axi_master_pkg File: ../../src/tb/master/axi_master_pkg.sv
# ** Warning: (vsim-8637) ../../src/tb/master//axi_master_monitor.sv(169): A modport ('axi_master_mo_mp') should not be used in a hierarchical path.
#    Time: 0 ps  Iteration: 0  Region: /axi_master_pkg File: ../../src/tb/master/axi_master_pkg.sv
# ** Warning: (vsim-8637) ../../src/tb/master//axi_master_monitor.sv(168): A modport ('axi_master_mo_mp') should not be used in a hierarchical path.
#    Time: 0 ps  Iteration: 0  Region: /axi_master_pkg File: ../../src/tb/master/axi_master_pkg.sv
# ** Warning: (vsim-8637) ../../src/tb/master//axi_master_monitor.sv(167): A modport ('axi_master_mo_mp') should not be used in a hierarchical path.
#    Time: 0 ps  Iteration: 0  Region: /axi_master_pkg File: ../../src/tb/master/axi_master_pkg.sv
# ** Warning: (vsim-8637) ../../src/tb/master//axi_master_monitor.sv(155): A modport ('axi_master_mo_mp') should not be used in a hierarchical path.
#    Time: 0 ps  Iteration: 0  Region: /axi_master_pkg File: ../../src/tb/master/axi_master_pkg.sv
# ** Warning: (vsim-8637) ../../src/tb/master//axi_master_monitor.sv(155): A modport ('axi_master_mo_mp') should not be used in a hierarchical path.
#    Time: 0 ps  Iteration: 0  Region: /axi_master_pkg File: ../../src/tb/master/axi_master_pkg.sv
# ** Warning: (vsim-8637) ../../src/tb/master//axi_master_monitor.sv(63): A modport ('axi_master_mo_mp') should not be used in a hierarchical path.
#    Time: 0 ps  Iteration: 0  Region: /axi_master_pkg File: ../../src/tb/master/axi_master_pkg.sv
# ** Warning: (vsim-8637) ../../src/tb/master//axi_master_monitor.sv(142): A modport ('axi_master_mo_mp') should not be used in a hierarchical path.
#    Time: 0 ps  Iteration: 0  Region: /axi_master_pkg File: ../../src/tb/master/axi_master_pkg.sv
# ** Warning: (vsim-8637) ../../src/tb/master//axi_master_monitor.sv(141): A modport ('axi_master_mo_mp') should not be used in a hierarchical path.
#    Time: 0 ps  Iteration: 0  Region: /axi_master_pkg File: ../../src/tb/master/axi_master_pkg.sv
# ** Warning: (vsim-8637) ../../src/tb/master//axi_master_monitor.sv(136): A modport ('axi_master_mo_mp') should not be used in a hierarchical path.
#    Time: 0 ps  Iteration: 0  Region: /axi_master_pkg File: ../../src/tb/master/axi_master_pkg.sv
# ** Warning: (vsim-8637) ../../src/tb/master//axi_master_monitor.sv(136): A modport ('axi_master_mo_mp') should not be used in a hierarchical path.
#    Time: 0 ps  Iteration: 0  Region: /axi_master_pkg File: ../../src/tb/master/axi_master_pkg.sv
# ** Warning: (vsim-8637) ../../src/tb/master//axi_master_monitor.sv(63): A modport ('axi_master_mo_mp') should not be used in a hierarchical path.
#    Time: 0 ps  Iteration: 0  Region: /axi_master_pkg File: ../../src/tb/master/axi_master_pkg.sv
# ** Warning: (vsim-8637) ../../src/tb/master//axi_master_monitor.sv(63): A modport ('axi_master_mo_mp') should not be used in a hierarchical path.
#    Time: 0 ps  Iteration: 0  Region: /axi_master_pkg File: ../../src/tb/master/axi_master_pkg.sv
# ** Warning: (vsim-8637) ../../src/tb/master//axi_master_monitor.sv(116): A modport ('axi_master_mo_mp') should not be used in a hierarchical path.
#    Time: 0 ps  Iteration: 0  Region: /axi_master_pkg File: ../../src/tb/master/axi_master_pkg.sv
# ** Warning: (vsim-8637) ../../src/tb/master//axi_master_monitor.sv(116): A modport ('axi_master_mo_mp') should not be used in a hierarchical path.
#    Time: 0 ps  Iteration: 0  Region: /axi_master_pkg File: ../../src/tb/master/axi_master_pkg.sv
# ** Warning: (vsim-8637) ../../src/tb/master//axi_master_monitor.sv(114): A modport ('axi_master_mo_mp') should not be used in a hierarchical path.
#    Time: 0 ps  Iteration: 0  Region: /axi_master_pkg File: ../../src/tb/master/axi_master_pkg.sv
# ** Warning: (vsim-8637) ../../src/tb/master//axi_master_monitor.sv(113): A modport ('axi_master_mo_mp') should not be used in a hierarchical path.
#    Time: 0 ps  Iteration: 0  Region: /axi_master_pkg File: ../../src/tb/master/axi_master_pkg.sv
# ** Warning: (vsim-8637) ../../src/tb/master//axi_master_monitor.sv(105): A modport ('axi_master_mo_mp') should not be used in a hierarchical path.
#    Time: 0 ps  Iteration: 0  Region: /axi_master_pkg File: ../../src/tb/master/axi_master_pkg.sv
# ** Warning: (vsim-8637) ../../src/tb/master//axi_master_monitor.sv(105): A modport ('axi_master_mo_mp') should not be used in a hierarchical path.
#    Time: 0 ps  Iteration: 0  Region: /axi_master_pkg File: ../../src/tb/master/axi_master_pkg.sv
# ** Warning: (vsim-8637) ../../src/tb/master//axi_master_monitor.sv(63): A modport ('axi_master_mo_mp') should not be used in a hierarchical path.
#    Time: 0 ps  Iteration: 0  Region: /axi_master_pkg File: ../../src/tb/master/axi_master_pkg.sv
# ** Warning: (vsim-8637) ../../src/tb/master//axi_master_monitor.sv(94): A modport ('axi_master_mo_mp') should not be used in a hierarchical path.
#    Time: 0 ps  Iteration: 0  Region: /axi_master_pkg File: ../../src/tb/master/axi_master_pkg.sv
# ** Warning: (vsim-8637) ../../src/tb/master//axi_master_monitor.sv(93): A modport ('axi_master_mo_mp') should not be used in a hierarchical path.
#    Time: 0 ps  Iteration: 0  Region: /axi_master_pkg File: ../../src/tb/master/axi_master_pkg.sv
# ** Warning: (vsim-8637) ../../src/tb/master//axi_master_monitor.sv(92): A modport ('axi_master_mo_mp') should not be used in a hierarchical path.
#    Time: 0 ps  Iteration: 0  Region: /axi_master_pkg File: ../../src/tb/master/axi_master_pkg.sv
# ** Warning: (vsim-8637) ../../src/tb/master//axi_master_monitor.sv(91): A modport ('axi_master_mo_mp') should not be used in a hierarchical path.
#    Time: 0 ps  Iteration: 0  Region: /axi_master_pkg File: ../../src/tb/master/axi_master_pkg.sv
# ** Warning: (vsim-8637) ../../src/tb/master//axi_master_monitor.sv(90): A modport ('axi_master_mo_mp') should not be used in a hierarchical path.
#    Time: 0 ps  Iteration: 0  Region: /axi_master_pkg File: ../../src/tb/master/axi_master_pkg.sv
# ** Warning: (vsim-8637) ../../src/tb/master//axi_master_monitor.sv(89): A modport ('axi_master_mo_mp') should not be used in a hierarchical path.
#    Time: 0 ps  Iteration: 0  Region: /axi_master_pkg File: ../../src/tb/master/axi_master_pkg.sv
# ** Warning: (vsim-8637) ../../src/tb/master//axi_master_monitor.sv(88): A modport ('axi_master_mo_mp') should not be used in a hierarchical path.
#    Time: 0 ps  Iteration: 0  Region: /axi_master_pkg File: ../../src/tb/master/axi_master_pkg.sv
# ** Warning: (vsim-8637) ../../src/tb/master//axi_master_monitor.sv(76): A modport ('axi_master_mo_mp') should not be used in a hierarchical path.
#    Time: 0 ps  Iteration: 0  Region: /axi_master_pkg File: ../../src/tb/master/axi_master_pkg.sv
# ** Warning: (vsim-8637) ../../src/tb/master//axi_master_monitor.sv(76): A modport ('axi_master_mo_mp') should not be used in a hierarchical path.
#    Time: 0 ps  Iteration: 0  Region: /axi_master_pkg File: ../../src/tb/master/axi_master_pkg.sv
# ** Warning: (vsim-8637) ../../src/tb/master//axi_master_monitor.sv(76): A modport ('axi_master_mo_mp') should not be used in a hierarchical path.
#    Time: 0 ps  Iteration: 0  Region: /axi_master_pkg File: ../../src/tb/master/axi_master_pkg.sv
# ** Warning: (vsim-8637) ../../src/tb/master//axi_master_monitor.sv(76): A modport ('axi_master_mo_mp') should not be used in a hierarchical path.
#    Time: 0 ps  Iteration: 0  Region: /axi_master_pkg File: ../../src/tb/master/axi_master_pkg.sv
# ** Warning: (vsim-8637) ../../src/tb/master//axi_master_monitor.sv(63): A modport ('axi_master_mo_mp') should not be used in a hierarchical path.
#    Time: 0 ps  Iteration: 0  Region: /axi_master_pkg File: ../../src/tb/master/axi_master_pkg.sv
# ** Warning: (vsim-8637) ../../src/tb/master//axi_master_monitor.sv(76): A modport ('axi_master_mo_mp') should not be used in a hierarchical path.
#    Time: 0 ps  Iteration: 0  Region: /axi_master_pkg File: ../../src/tb/master/axi_master_pkg.sv
# ** Warning: (vsim-8637) ../../src/tb/master//axi_master_monitor.sv(76): A modport ('axi_master_mo_mp') should not be used in a hierarchical path.
#    Time: 0 ps  Iteration: 0  Region: /axi_master_pkg File: ../../src/tb/master/axi_master_pkg.sv
# ** Warning: (vsim-8637) ../../src/tb/master//axi_master_monitor.sv(64): A modport ('axi_master_mo_mp') should not be used in a hierarchical path.
#    Time: 0 ps  Iteration: 0  Region: /axi_master_pkg File: ../../src/tb/master/axi_master_pkg.sv
# ** Warning: (vsim-8637) ../../src/tb/master//axi_master_monitor.sv(63): A modport ('axi_master_mo_mp') should not be used in a hierarchical path.
#    Time: 0 ps  Iteration: 0  Region: /axi_master_pkg File: ../../src/tb/master/axi_master_pkg.sv
# ** Warning: (vsim-8637) ../../src/tb/master//axi_master_monitor.sv(220): A modport ('axi_master_mo_mp') should not be used in a hierarchical path.
#    Time: 0 ps  Iteration: 0  Region: /axi_master_pkg File: ../../src/tb/master/axi_master_pkg.sv
# ** Warning: (vsim-8637) ../../src/tb/master//axi_master_monitor.sv(219): A modport ('axi_master_mo_mp') should not be used in a hierarchical path.
#    Time: 0 ps  Iteration: 0  Region: /axi_master_pkg File: ../../src/tb/master/axi_master_pkg.sv
# ** Warning: (vsim-8637) ../../src/tb/master//axi_master_monitor.sv(218): A modport ('axi_master_mo_mp') should not be used in a hierarchical path.
#    Time: 0 ps  Iteration: 0  Region: /axi_master_pkg File: ../../src/tb/master/axi_master_pkg.sv
# ** Warning: (vsim-8637) ../../src/tb/master//axi_master_monitor.sv(217): A modport ('axi_master_mo_mp') should not be used in a hierarchical path.
#    Time: 0 ps  Iteration: 0  Region: /axi_master_pkg File: ../../src/tb/master/axi_master_pkg.sv
# ** Warning: (vsim-8637) ../../src/tb/master//axi_master_monitor.sv(216): A modport ('axi_master_mo_mp') should not be used in a hierarchical path.
#    Time: 0 ps  Iteration: 0  Region: /axi_master_pkg File: ../../src/tb/master/axi_master_pkg.sv
# ** Warning: (vsim-8637) ../../src/tb/master//axi_master_monitor.sv(215): A modport ('axi_master_mo_mp') should not be used in a hierarchical path.
#    Time: 0 ps  Iteration: 0  Region: /axi_master_pkg File: ../../src/tb/master/axi_master_pkg.sv
# ** Warning: (vsim-8637) ../../src/tb/master//axi_master_monitor.sv(214): A modport ('axi_master_mo_mp') should not be used in a hierarchical path.
#    Time: 0 ps  Iteration: 0  Region: /axi_master_pkg File: ../../src/tb/master/axi_master_pkg.sv
# ** Warning: (vsim-8637) ../../src/tb/master//axi_master_monitor.sv(213): A modport ('axi_master_mo_mp') should not be used in a hierarchical path.
#    Time: 0 ps  Iteration: 0  Region: /axi_master_pkg File: ../../src/tb/master/axi_master_pkg.sv
# ** Warning: (vsim-8637) ../../src/tb/master//axi_master_monitor.sv(212): A modport ('axi_master_mo_mp') should not be used in a hierarchical path.
#    Time: 0 ps  Iteration: 0  Region: /axi_master_pkg File: ../../src/tb/master/axi_master_pkg.sv
# ** Warning: (vsim-8637) ../../src/tb/master//axi_master_monitor.sv(211): A modport ('axi_master_mo_mp') should not be used in a hierarchical path.
#    Time: 0 ps  Iteration: 0  Region: /axi_master_pkg File: ../../src/tb/master/axi_master_pkg.sv
# ** Warning: (vsim-8637) ../../src/tb/master//axi_master_monitor.sv(203): A modport ('axi_master_mo_mp') should not be used in a hierarchical path.
#    Time: 0 ps  Iteration: 0  Region: /axi_master_pkg File: ../../src/tb/master/axi_master_pkg.sv
# ** Warning: (vsim-8637) ../../src/tb/master//axi_master_monitor.sv(195): A modport ('axi_master_mo_mp') should not be used in a hierarchical path.
#    Time: 0 ps  Iteration: 0  Region: /axi_master_pkg File: ../../src/tb/master/axi_master_pkg.sv
# ** Warning: (vsim-8637) ../../src/tb/master//axi_master_monitor.sv(194): A modport ('axi_master_mo_mp') should not be used in a hierarchical path.
#    Time: 0 ps  Iteration: 0  Region: /axi_master_pkg File: ../../src/tb/master/axi_master_pkg.sv
# ** Warning: (vsim-8637) ../../src/tb/master//axi_master_monitor.sv(192): A modport ('axi_master_mo_mp') should not be used in a hierarchical path.
#    Time: 0 ps  Iteration: 0  Region: /axi_master_pkg File: ../../src/tb/master/axi_master_pkg.sv
# ** Warning: (vsim-8637) ../../src/tb/master//axi_master_monitor.sv(182): A modport ('axi_master_mo_mp') should not be used in a hierarchical path.
#    Time: 0 ps  Iteration: 0  Region: /axi_master_pkg File: ../../src/tb/master/axi_master_pkg.sv
# ** Warning: (vsim-8637) ../../src/tb/master//axi_master_monitor.sv(182): A modport ('axi_master_mo_mp') should not be used in a hierarchical path.
#    Time: 0 ps  Iteration: 0  Region: /axi_master_pkg File: ../../src/tb/master/axi_master_pkg.sv
# ** Warning: (vsim-8637) ../../src/tb/master//axi_master_monitor.sv(173): A modport ('axi_master_mo_mp') should not be used in a hierarchical path.
#    Time: 0 ps  Iteration: 0  Region: /axi_master_pkg File: ../../src/tb/master/axi_master_pkg.sv
# ** Warning: (vsim-8637) ../../src/tb/master//axi_master_monitor.sv(172): A modport ('axi_master_mo_mp') should not be used in a hierarchical path.
#    Time: 0 ps  Iteration: 0  Region: /axi_master_pkg File: ../../src/tb/master/axi_master_pkg.sv
# ** Warning: (vsim-8637) ../../src/tb/master//axi_master_monitor.sv(171): A modport ('axi_master_mo_mp') should not be used in a hierarchical path.
#    Time: 0 ps  Iteration: 0  Region: /axi_master_pkg File: ../../src/tb/master/axi_master_pkg.sv
# ** Warning: (vsim-8637) ../../src/tb/master//axi_master_monitor.sv(170): A modport ('axi_master_mo_mp') should not be used in a hierarchical path.
#    Time: 0 ps  Iteration: 0  Region: /axi_master_pkg File: ../../src/tb/master/axi_master_pkg.sv
# ** Warning: (vsim-8637) ../../src/tb/master//axi_master_monitor.sv(169): A modport ('axi_master_mo_mp') should not be used in a hierarchical path.
#    Time: 0 ps  Iteration: 0  Region: /axi_master_pkg File: ../../src/tb/master/axi_master_pkg.sv
# ** Warning: (vsim-8637) ../../src/tb/master//axi_master_monitor.sv(168): A modport ('axi_master_mo_mp') should not be used in a hierarchical path.
#    Time: 0 ps  Iteration: 0  Region: /axi_master_pkg File: ../../src/tb/master/axi_master_pkg.sv
# ** Warning: (vsim-8637) ../../src/tb/master//axi_master_monitor.sv(167): A modport ('axi_master_mo_mp') should not be used in a hierarchical path.
#    Time: 0 ps  Iteration: 0  Region: /axi_master_pkg File: ../../src/tb/master/axi_master_pkg.sv
# ** Warning: (vsim-8637) ../../src/tb/master//axi_master_monitor.sv(155): A modport ('axi_master_mo_mp') should not be used in a hierarchical path.
#    Time: 0 ps  Iteration: 0  Region: /axi_master_pkg File: ../../src/tb/master/axi_master_pkg.sv
# ** Warning: (vsim-8637) ../../src/tb/master//axi_master_monitor.sv(155): A modport ('axi_master_mo_mp') should not be used in a hierarchical path.
#    Time: 0 ps  Iteration: 0  Region: /axi_master_pkg File: ../../src/tb/master/axi_master_pkg.sv
# ** Warning: (vsim-8637) ../../src/tb/master//axi_master_monitor.sv(153): A modport ('axi_master_mo_mp') should not be used in a hierarchical path.
#    Time: 0 ps  Iteration: 0  Region: /axi_master_pkg File: ../../src/tb/master/axi_master_pkg.sv
# ** Warning: (vsim-8637) ../../src/tb/master//axi_master_monitor.sv(142): A modport ('axi_master_mo_mp') should not be used in a hierarchical path.
#    Time: 0 ps  Iteration: 0  Region: /axi_master_pkg File: ../../src/tb/master/axi_master_pkg.sv
# ** Warning: (vsim-8637) ../../src/tb/master//axi_master_monitor.sv(141): A modport ('axi_master_mo_mp') should not be used in a hierarchical path.
#    Time: 0 ps  Iteration: 0  Region: /axi_master_pkg File: ../../src/tb/master/axi_master_pkg.sv
# ** Warning: (vsim-8637) ../../src/tb/master//axi_master_monitor.sv(136): A modport ('axi_master_mo_mp') should not be used in a hierarchical path.
#    Time: 0 ps  Iteration: 0  Region: /axi_master_pkg File: ../../src/tb/master/axi_master_pkg.sv
# ** Warning: (vsim-8637) ../../src/tb/master//axi_master_monitor.sv(136): A modport ('axi_master_mo_mp') should not be used in a hierarchical path.
#    Time: 0 ps  Iteration: 0  Region: /axi_master_pkg File: ../../src/tb/master/axi_master_pkg.sv
# ** Warning: (vsim-8637) ../../src/tb/master//axi_master_monitor.sv(134): A modport ('axi_master_mo_mp') should not be used in a hierarchical path.
#    Time: 0 ps  Iteration: 0  Region: /axi_master_pkg File: ../../src/tb/master/axi_master_pkg.sv
# ** Warning: (vsim-8637) ../../src/tb/master//axi_master_monitor.sv(126): A modport ('axi_master_mo_mp') should not be used in a hierarchical path.
#    Time: 0 ps  Iteration: 0  Region: /axi_master_pkg File: ../../src/tb/master/axi_master_pkg.sv
# ** Warning: (vsim-8637) ../../src/tb/master//axi_master_monitor.sv(119): A modport ('axi_master_mo_mp') should not be used in a hierarchical path.
#    Time: 0 ps  Iteration: 0  Region: /axi_master_pkg File: ../../src/tb/master/axi_master_pkg.sv
# ** Warning: (vsim-8637) ../../src/tb/master//axi_master_monitor.sv(116): A modport ('axi_master_mo_mp') should not be used in a hierarchical path.
#    Time: 0 ps  Iteration: 0  Region: /axi_master_pkg File: ../../src/tb/master/axi_master_pkg.sv
# ** Warning: (vsim-8637) ../../src/tb/master//axi_master_monitor.sv(114): A modport ('axi_master_mo_mp') should not be used in a hierarchical path.
#    Time: 0 ps  Iteration: 0  Region: /axi_master_pkg File: ../../src/tb/master/axi_master_pkg.sv
# ** Warning: (vsim-8637) ../../src/tb/master//axi_master_monitor.sv(113): A modport ('axi_master_mo_mp') should not be used in a hierarchical path.
#    Time: 0 ps  Iteration: 0  Region: /axi_master_pkg File: ../../src/tb/master/axi_master_pkg.sv
# ** Warning: (vsim-8637) ../../src/tb/master//axi_master_monitor.sv(105): A modport ('axi_master_mo_mp') should not be used in a hierarchical path.
#    Time: 0 ps  Iteration: 0  Region: /axi_master_pkg File: ../../src/tb/master/axi_master_pkg.sv
# ** Warning: (vsim-8637) ../../src/tb/master//axi_master_monitor.sv(105): A modport ('axi_master_mo_mp') should not be used in a hierarchical path.
#    Time: 0 ps  Iteration: 0  Region: /axi_master_pkg File: ../../src/tb/master/axi_master_pkg.sv
# ** Warning: (vsim-8637) ../../src/tb/master//axi_master_monitor.sv(103): A modport ('axi_master_mo_mp') should not be used in a hierarchical path.
#    Time: 0 ps  Iteration: 0  Region: /axi_master_pkg File: ../../src/tb/master/axi_master_pkg.sv
# ** Warning: (vsim-8637) ../../src/tb/master//axi_master_monitor.sv(94): A modport ('axi_master_mo_mp') should not be used in a hierarchical path.
#    Time: 0 ps  Iteration: 0  Region: /axi_master_pkg File: ../../src/tb/master/axi_master_pkg.sv
# ** Warning: (vsim-8637) ../../src/tb/master//axi_master_monitor.sv(93): A modport ('axi_master_mo_mp') should not be used in a hierarchical path.
#    Time: 0 ps  Iteration: 0  Region: /axi_master_pkg File: ../../src/tb/master/axi_master_pkg.sv
# ** Warning: (vsim-8637) ../../src/tb/master//axi_master_monitor.sv(92): A modport ('axi_master_mo_mp') should not be used in a hierarchical path.
#    Time: 0 ps  Iteration: 0  Region: /axi_master_pkg File: ../../src/tb/master/axi_master_pkg.sv
# ** Warning: (vsim-8637) ../../src/tb/master//axi_master_monitor.sv(91): A modport ('axi_master_mo_mp') should not be used in a hierarchical path.
#    Time: 0 ps  Iteration: 0  Region: /axi_master_pkg File: ../../src/tb/master/axi_master_pkg.sv
# ** Warning: (vsim-8637) ../../src/tb/master//axi_master_monitor.sv(90): A modport ('axi_master_mo_mp') should not be used in a hierarchical path.
#    Time: 0 ps  Iteration: 0  Region: /axi_master_pkg File: ../../src/tb/master/axi_master_pkg.sv
# ** Warning: (vsim-8637) ../../src/tb/master//axi_master_monitor.sv(89): A modport ('axi_master_mo_mp') should not be used in a hierarchical path.
#    Time: 0 ps  Iteration: 0  Region: /axi_master_pkg File: ../../src/tb/master/axi_master_pkg.sv
# ** Warning: (vsim-8637) ../../src/tb/master//axi_master_monitor.sv(88): A modport ('axi_master_mo_mp') should not be used in a hierarchical path.
#    Time: 0 ps  Iteration: 0  Region: /axi_master_pkg File: ../../src/tb/master/axi_master_pkg.sv
# ** Warning: (vsim-8637) ../../src/tb/master//axi_master_monitor.sv(77): A modport ('axi_master_mo_mp') should not be used in a hierarchical path.
#    Time: 0 ps  Iteration: 0  Region: /axi_master_pkg File: ../../src/tb/master/axi_master_pkg.sv
# ** Warning: (vsim-8637) ../../src/tb/master//axi_master_monitor.sv(77): A modport ('axi_master_mo_mp') should not be used in a hierarchical path.
#    Time: 0 ps  Iteration: 0  Region: /axi_master_pkg File: ../../src/tb/master/axi_master_pkg.sv
# ** Warning: (vsim-8637) ../../src/tb/master//axi_master_monitor.sv(76): A modport ('axi_master_mo_mp') should not be used in a hierarchical path.
#    Time: 0 ps  Iteration: 0  Region: /axi_master_pkg File: ../../src/tb/master/axi_master_pkg.sv
# ** Warning: (vsim-8637) ../../src/tb/master//axi_master_monitor.sv(76): A modport ('axi_master_mo_mp') should not be used in a hierarchical path.
#    Time: 0 ps  Iteration: 0  Region: /axi_master_pkg File: ../../src/tb/master/axi_master_pkg.sv
# ** Warning: (vsim-8637) ../../src/tb/master//axi_master_monitor.sv(74): A modport ('axi_master_mo_mp') should not be used in a hierarchical path.
#    Time: 0 ps  Iteration: 0  Region: /axi_master_pkg File: ../../src/tb/master/axi_master_pkg.sv
# ** Warning: (vsim-8637) ../../src/tb/master//axi_master_monitor.sv(72): A modport ('axi_master_mo_mp') should not be used in a hierarchical path.
#    Time: 0 ps  Iteration: 0  Region: /axi_master_pkg File: ../../src/tb/master/axi_master_pkg.sv
# ** Warning: (vsim-8637) ../../src/tb/master//axi_master_monitor.sv(72): A modport ('axi_master_mo_mp') should not be used in a hierarchical path.
#    Time: 0 ps  Iteration: 0  Region: /axi_master_pkg File: ../../src/tb/master/axi_master_pkg.sv
# ** Warning: (vsim-8637) ../../src/tb/master//axi_master_monitor.sv(64): A modport ('axi_master_mo_mp') should not be used in a hierarchical path.
#    Time: 0 ps  Iteration: 0  Region: /axi_master_pkg File: ../../src/tb/master/axi_master_pkg.sv
# ** Warning: (vsim-8637) ../../src/tb/master//axi_master_monitor.sv(63): A modport ('axi_master_mo_mp') should not be used in a hierarchical path.
#    Time: 0 ps  Iteration: 0  Region: /axi_master_pkg File: ../../src/tb/master/axi_master_pkg.sv
# ** Warning: (vsim-8637) ../../src/tb/master//axi_master_driver.sv(172): A modport ('axi_master_dr_mp') should not be used in a hierarchical path.
#    Time: 0 ps  Iteration: 0  Region: /axi_master_pkg::axi_master_driver File: ../../src/tb/master/axi_master_pkg.sv
# ** Warning: (vsim-8637) ../../src/tb/master//axi_master_driver.sv(160): A modport ('axi_master_dr_mp') should not be used in a hierarchical path.
#    Time: 0 ps  Iteration: 0  Region: /axi_master_pkg::axi_master_driver File: ../../src/tb/master/axi_master_pkg.sv
# ** Warning: (vsim-8637) ../../src/tb/master//axi_master_driver.sv(159): A modport ('axi_master_dr_mp') should not be used in a hierarchical path.
#    Time: 0 ps  Iteration: 0  Region: /axi_master_pkg::axi_master_driver File: ../../src/tb/master/axi_master_pkg.sv
# ** Warning: (vsim-8637) ../../src/tb/master//axi_master_driver.sv(158): A modport ('axi_master_dr_mp') should not be used in a hierarchical path.
#    Time: 0 ps  Iteration: 0  Region: /axi_master_pkg::axi_master_driver File: ../../src/tb/master/axi_master_pkg.sv
# ** Warning: (vsim-8637) ../../src/tb/master//axi_master_driver.sv(157): A modport ('axi_master_dr_mp') should not be used in a hierarchical path.
#    Time: 0 ps  Iteration: 0  Region: /axi_master_pkg::axi_master_driver File: ../../src/tb/master/axi_master_pkg.sv
# ** Warning: (vsim-8637) ../../src/tb/master//axi_master_driver.sv(156): A modport ('axi_master_dr_mp') should not be used in a hierarchical path.
#    Time: 0 ps  Iteration: 0  Region: /axi_master_pkg::axi_master_driver File: ../../src/tb/master/axi_master_pkg.sv
# ** Warning: (vsim-8637) ../../src/tb/master//axi_master_driver.sv(155): A modport ('axi_master_dr_mp') should not be used in a hierarchical path.
#    Time: 0 ps  Iteration: 0  Region: /axi_master_pkg::axi_master_driver File: ../../src/tb/master/axi_master_pkg.sv
# ** Warning: (vsim-8637) ../../src/tb/master//axi_master_driver.sv(154): A modport ('axi_master_dr_mp') should not be used in a hierarchical path.
#    Time: 0 ps  Iteration: 0  Region: /axi_master_pkg::axi_master_driver File: ../../src/tb/master/axi_master_pkg.sv
# ** Warning: (vsim-8637) ../../src/tb/master//axi_master_driver.sv(153): A modport ('axi_master_dr_mp') should not be used in a hierarchical path.
#    Time: 0 ps  Iteration: 0  Region: /axi_master_pkg::axi_master_driver File: ../../src/tb/master/axi_master_pkg.sv
# ** Warning: (vsim-8637) ../../src/tb/master//axi_master_driver.sv(152): A modport ('axi_master_dr_mp') should not be used in a hierarchical path.
#    Time: 0 ps  Iteration: 0  Region: /axi_master_pkg::axi_master_driver File: ../../src/tb/master/axi_master_pkg.sv
# ** Warning: (vsim-8637) ../../src/tb/master//axi_master_driver.sv(148): A modport ('axi_master_dr_mp') should not be used in a hierarchical path.
#    Time: 0 ps  Iteration: 0  Region: /axi_master_pkg::axi_master_driver File: ../../src/tb/master/axi_master_pkg.sv
# ** Warning: (vsim-8637) ../../src/tb/master//axi_master_driver.sv(130): A modport ('axi_master_dr_mp') should not be used in a hierarchical path.
#    Time: 0 ps  Iteration: 0  Region: /axi_master_pkg::axi_master_driver File: ../../src/tb/master/axi_master_pkg.sv
# ** Warning: (vsim-8637) ../../src/tb/master//axi_master_driver.sv(112): A modport ('axi_master_dr_mp') should not be used in a hierarchical path.
#    Time: 0 ps  Iteration: 0  Region: /axi_master_pkg::axi_master_driver File: ../../src/tb/master/axi_master_pkg.sv
# ** Warning: (vsim-8637) ../../src/tb/master//axi_master_driver.sv(110): A modport ('axi_master_dr_mp') should not be used in a hierarchical path.
#    Time: 0 ps  Iteration: 0  Region: /axi_master_pkg::axi_master_driver File: ../../src/tb/master/axi_master_pkg.sv
# ** Warning: (vsim-8637) ../../src/tb/master//axi_master_driver.sv(109): A modport ('axi_master_dr_mp') should not be used in a hierarchical path.
#    Time: 0 ps  Iteration: 0  Region: /axi_master_pkg::axi_master_driver File: ../../src/tb/master/axi_master_pkg.sv
# ** Warning: (vsim-8637) ../../src/tb/master//axi_master_driver.sv(108): A modport ('axi_master_dr_mp') should not be used in a hierarchical path.
#    Time: 0 ps  Iteration: 0  Region: /axi_master_pkg::axi_master_driver File: ../../src/tb/master/axi_master_pkg.sv
# ** Warning: (vsim-8637) ../../src/tb/master//axi_master_driver.sv(107): A modport ('axi_master_dr_mp') should not be used in a hierarchical path.
#    Time: 0 ps  Iteration: 0  Region: /axi_master_pkg::axi_master_driver File: ../../src/tb/master/axi_master_pkg.sv
# ** Warning: (vsim-8637) ../../src/tb/master//axi_master_driver.sv(92): A modport ('axi_master_dr_mp') should not be used in a hierarchical path.
#    Time: 0 ps  Iteration: 0  Region: /axi_master_pkg::axi_master_driver File: ../../src/tb/master/axi_master_pkg.sv
# ** Warning: (vsim-8637) ../../src/tb/master//axi_master_driver.sv(91): A modport ('axi_master_dr_mp') should not be used in a hierarchical path.
#    Time: 0 ps  Iteration: 0  Region: /axi_master_pkg::axi_master_driver File: ../../src/tb/master/axi_master_pkg.sv
# ** Warning: (vsim-8637) ../../src/tb/master//axi_master_driver.sv(90): A modport ('axi_master_dr_mp') should not be used in a hierarchical path.
#    Time: 0 ps  Iteration: 0  Region: /axi_master_pkg::axi_master_driver File: ../../src/tb/master/axi_master_pkg.sv
# ** Warning: (vsim-8637) ../../src/tb/master//axi_master_driver.sv(89): A modport ('axi_master_dr_mp') should not be used in a hierarchical path.
#    Time: 0 ps  Iteration: 0  Region: /axi_master_pkg::axi_master_driver File: ../../src/tb/master/axi_master_pkg.sv
# ** Warning: (vsim-8637) ../../src/tb/master//axi_master_driver.sv(88): A modport ('axi_master_dr_mp') should not be used in a hierarchical path.
#    Time: 0 ps  Iteration: 0  Region: /axi_master_pkg::axi_master_driver File: ../../src/tb/master/axi_master_pkg.sv
# ** Warning: (vsim-8637) ../../src/tb/master//axi_master_driver.sv(87): A modport ('axi_master_dr_mp') should not be used in a hierarchical path.
#    Time: 0 ps  Iteration: 0  Region: /axi_master_pkg::axi_master_driver File: ../../src/tb/master/axi_master_pkg.sv
# ** Warning: (vsim-8637) ../../src/tb/master//axi_master_driver.sv(86): A modport ('axi_master_dr_mp') should not be used in a hierarchical path.
#    Time: 0 ps  Iteration: 0  Region: /axi_master_pkg::axi_master_driver File: ../../src/tb/master/axi_master_pkg.sv
# ** Warning: (vsim-8637) ../../src/tb/master//axi_master_driver.sv(85): A modport ('axi_master_dr_mp') should not be used in a hierarchical path.
#    Time: 0 ps  Iteration: 0  Region: /axi_master_pkg::axi_master_driver File: ../../src/tb/master/axi_master_pkg.sv
# ** Warning: (vsim-8637) ../../src/tb/master//axi_master_driver.sv(84): A modport ('axi_master_dr_mp') should not be used in a hierarchical path.
#    Time: 0 ps  Iteration: 0  Region: /axi_master_pkg::axi_master_driver File: ../../src/tb/master/axi_master_pkg.sv
# ** Warning: (vsim-8637) ../../src/tb/master//axi_master_driver.sv(107): A modport ('axi_master_dr_mp') should not be used in a hierarchical path.
#    Time: 0 ps  Iteration: 0  Region: /axi_master_pkg::axi_master_driver File: ../../src/tb/master/axi_master_pkg.sv
# ** Warning: (vsim-8637) ../../src/tb/master//axi_master_driver.sv(67): A modport ('axi_master_dr_mp') should not be used in a hierarchical path.
#    Time: 0 ps  Iteration: 0  Region: /axi_master_pkg::axi_master_driver File: ../../src/tb/master/axi_master_pkg.sv
# ** Warning: (vsim-8441) ../../src/tb/master//axi_master_driver.sv(67): Clocking block output vif.axi_master_dr_mp.axi_master_dr_cb.s_axi_awvalid is not legal in this
# or another expression.
#    Time: 0 ps  Iteration: 0  Region: /axi_master_pkg::axi_master_driver File: ../../src/tb/master/axi_master_pkg.sv
# ** Warning: (vsim-8637) ../../src/tb/master//axi_master_driver.sv(53): A modport ('axi_master_dr_mp') should not be used in a hierarchical path.
#    Time: 0 ps  Iteration: 0  Region: /axi_master_pkg::axi_master_driver File: ../../src/tb/master/axi_master_pkg.sv
# ** Warning: (vsim-8637) ../../src/tb/master//axi_master_driver.sv(67): A modport ('axi_master_dr_mp') should not be used in a hierarchical path.
#    Time: 0 ps  Iteration: 0  Region: /axi_master_pkg::axi_master_driver File: ../../src/tb/master/axi_master_pkg.sv
# ** Warning: (vsim-8441) ../../src/tb/master//axi_master_driver.sv(67): Clocking block output vif.axi_master_dr_mp.axi_master_dr_cb.s_axi_awvalid is not legal in this
# or another expression.
#    Time: 0 ps  Iteration: 0  Region: /axi_master_pkg::axi_master_driver File: ../../src/tb/master/axi_master_pkg.sv
# ** Warning: (vsim-8637) ../../src/tb/master//axi_master_driver.sv(50): A modport ('axi_master_dr_mp') should not be used in a hierarchical path.
#    Time: 0 ps  Iteration: 0  Region: /axi_master_pkg::axi_master_driver File: ../../src/tb/master/axi_master_pkg.sv
# ** Warning: (vsim-8637) ../../src/tb/master//axi_master_driver.sv(49): A modport ('axi_master_dr_mp') should not be used in a hierarchical path.
#    Time: 0 ps  Iteration: 0  Region: /axi_master_pkg::axi_master_driver File: ../../src/tb/master/axi_master_pkg.sv
# Loading /tools/mentor/questasim_10.6c/questasim/uvm-1.1d/linux/uvm_dpi.so
# log -r /*
#  add wave -r /*
#  coverage save -onexit -assert -directive -cvg -codeAll axi_master_read_8b_test_30012024-100759/axi_master_read_8b_test_coverage.ucdb
#  run -all
# ----------------------------------------------------------------
# UVM-1.1d
# (C) 2007-2013 Mentor Graphics Corporation
# (C) 2007-2013 Cadence Design Systems, Inc.
# (C) 2006-2013 Synopsys, Inc.
# (C) 2011-2013 Cypress Semiconductor Corp.
# ----------------------------------------------------------------
# 
#   ***********       IMPORTANT RELEASE NOTES         ************
# 
#   You are using a version of the UVM library that has been compiled
#   with `UVM_NO_DEPRECATED undefined.
#   See http://www.eda.org/svdb/view.php?id=3313 for more details.
# 
#   You are using a version of the UVM library that has been compiled
#   with `UVM_OBJECT_MUST_HAVE_CONSTRUCTOR undefined.
#   See http://www.eda.org/svdb/view.php?id=3770 for more details.
# 
#       (Specify +UVM_NO_RELNOTES to turn off this notice)
# 
# UVM_INFO verilog_src/questa_uvm_pkg-1.2/src/questa_uvm_pkg.sv(215) @ 0: reporter [Questa UVM] QUESTA_UVM-1.2.3
# UVM_INFO verilog_src/questa_uvm_pkg-1.2/src/questa_uvm_pkg.sv(217) @ 0: reporter [Questa UVM]  questa_uvm::init(+struct)
# UVM_INFO ../../src/tb/axi_master_top.sv(65) @ 0: reporter [TOP] in top
# UVM_INFO @ 0: reporter [RNTST] Running test axi_master_read_8b_test...
# UVM_INFO ../../src/tb/master//axi_master_monitor.sv(49) @ 0: uvm_test_top.axi_master_env_h.axi_master_agt.axi_master_mon_h [Monitor: ] Vif found
# UVM_INFO ../../src/tb/test//axi_base_test.sv(57) @ 0: uvm_test_top [axi_master_read_8b_test] Inside BASE_TEST
# UVM_INFO ../../src/tb/test//axi_base_test.sv(60) @ 0: uvm_test_top [axi_master_read_8b_test] Done BASE_TEST
# UVM_INFO ../../src/tb/test//axi_master_read_8b_test.sv(34) @ 0: uvm_test_top [axi_master_read_8b_test] axi_master_read_8b_test
# reset in driver = 1 at time 0
# UVM_WARNING @ 0: uvm_test_top.axi_master_env_h.axi_master_agt.axi_master_seqr_h@@axi_master_read_8b_transfer_h [uvm_sequence_base] Body definition undefined
# reset in driver = 1 at time 5000
# at time 15000 reset is 0
# UVM_INFO ../../src/tb/master//axi_master_monitor.sv(72) @ 15000: uvm_test_top.axi_master_env_h.axi_master_agt.axi_master_mon_h [VALID READY] awvalid = x, awready = 0
# UVM_INFO ../../src/tb/master//axi_master_driver.sv(58) @ 15000: uvm_test_top.axi_master_env_h.axi_master_agt.axi_master_drv_h [driver] before get next
# ---------------------------------------------------------------------------------------------------------------------------------------------------------
# Name                           Type                    Size  Value                                                                                       
# ---------------------------------------------------------------------------------------------------------------------------------------------------------
# req                            axi_master_transaction  -     @673                                                                                        
#   begin_time                   time                    64    15000                                                                                       
#   depth                        int                     32    'd2                                                                                         
#   parent sequence (name)       string                  29    axi_master_read_8b_transfer_h                                                               
#   parent sequence (full name)  string                  92    uvm_test_top.axi_master_env_h.axi_master_agt.axi_master_seqr_h.axi_master_read_8b_transfer_h
#   sequencer                    string                  62    uvm_test_top.axi_master_env_h.axi_master_agt.axi_master_seqr_h                              
# ---------------------------------------------------------------------------------------------------------------------------------------------------------
# UVM_INFO ../../src/tb/master//axi_master_driver.sv(60) @ 15000: uvm_test_top.axi_master_env_h.axi_master_agt.axi_master_drv_h [driver] AFTER get next
# UVM_INFO ../../src/tb/master//axi_master_monitor.sv(72) @ 25000: uvm_test_top.axi_master_env_h.axi_master_agt.axi_master_mon_h [VALID READY] awvalid = 0, awready = 0
# UVM_INFO ../../src/tb/master//axi_master_monitor.sv(72) @ 35000: uvm_test_top.axi_master_env_h.axi_master_agt.axi_master_mon_h [VALID READY] awvalid = 0, awready = 1
# UVM_INFO ../../src/tb/master//axi_master_monitor.sv(72) @ 45000: uvm_test_top.axi_master_env_h.axi_master_agt.axi_master_mon_h [VALID READY] awvalid = 0, awready = 1
# UVM_INFO ../../src/tb/master//axi_master_monitor.sv(72) @ 55000: uvm_test_top.axi_master_env_h.axi_master_agt.axi_master_mon_h [VALID READY] awvalid = 0, awready = 1
# UVM_INFO ../../src/tb/master//axi_master_monitor.sv(72) @ 65000: uvm_test_top.axi_master_env_h.axi_master_agt.axi_master_mon_h [VALID READY] awvalid = 0, awready = 1
# UVM_INFO ../../src/tb/master//axi_master_monitor.sv(72) @ 75000: uvm_test_top.axi_master_env_h.axi_master_agt.axi_master_mon_h [VALID READY] awvalid = 0, awready = 1
# UVM_INFO ../../src/tb/master//axi_master_monitor.sv(72) @ 85000: uvm_test_top.axi_master_env_h.axi_master_agt.axi_master_mon_h [VALID READY] awvalid = 0, awready = 1
# UVM_INFO ../../src/tb/master//axi_master_monitor.sv(72) @ 95000: uvm_test_top.axi_master_env_h.axi_master_agt.axi_master_mon_h [VALID READY] awvalid = 0, awready = 1
# UVM_INFO ../../src/tb/master//axi_master_monitor.sv(72) @ 105000: uvm_test_top.axi_master_env_h.axi_master_agt.axi_master_mon_h [VALID READY] awvalid = 0, awready = 1
# UVM_INFO ../../src/tb/master//axi_master_monitor.sv(72) @ 115000: uvm_test_top.axi_master_env_h.axi_master_agt.axi_master_mon_h [VALID READY] awvalid = 0, awready = 1
# UVM_INFO ../../src/tb/master//axi_master_monitor.sv(72) @ 125000: uvm_test_top.axi_master_env_h.axi_master_agt.axi_master_mon_h [VALID READY] awvalid = 0, awready = 1
# UVM_INFO ../../src/tb/master//axi_master_monitor.sv(72) @ 135000: uvm_test_top.axi_master_env_h.axi_master_agt.axi_master_mon_h [VALID READY] awvalid = 0, awready = 1
# UVM_INFO ../../src/tb/master//axi_master_monitor.sv(72) @ 145000: uvm_test_top.axi_master_env_h.axi_master_agt.axi_master_mon_h [VALID READY] awvalid = 0, awready = 1
# UVM_INFO ../../src/tb/master//axi_master_monitor.sv(72) @ 155000: uvm_test_top.axi_master_env_h.axi_master_agt.axi_master_mon_h [VALID READY] awvalid = 0, awready = 1
# UVM_INFO ../../src/tb/master//axi_master_monitor.sv(72) @ 165000: uvm_test_top.axi_master_env_h.axi_master_agt.axi_master_mon_h [VALID READY] awvalid = 0, awready = 1
# UVM_INFO ../../src/tb/master//axi_master_monitor.sv(72) @ 175000: uvm_test_top.axi_master_env_h.axi_master_agt.axi_master_mon_h [VALID READY] awvalid = 0, awready = 1
# UVM_INFO ../../src/tb/master//axi_master_monitor.sv(72) @ 185000: uvm_test_top.axi_master_env_h.axi_master_agt.axi_master_mon_h [VALID READY] awvalid = 0, awready = 1
# UVM_INFO ../../src/tb/master//axi_master_monitor.sv(72) @ 195000: uvm_test_top.axi_master_env_h.axi_master_agt.axi_master_mon_h [VALID READY] awvalid = 0, awready = 1
# UVM_INFO ../../src/tb/master//axi_master_monitor.sv(72) @ 205000: uvm_test_top.axi_master_env_h.axi_master_agt.axi_master_mon_h [VALID READY] awvalid = 0, awready = 1
# UVM_INFO ../../src/tb/master//axi_master_monitor.sv(72) @ 215000: uvm_test_top.axi_master_env_h.axi_master_agt.axi_master_mon_h [VALID READY] awvalid = 0, awready = 1
# UVM_INFO ../../src/tb/master//axi_master_monitor.sv(72) @ 225000: uvm_test_top.axi_master_env_h.axi_master_agt.axi_master_mon_h [VALID READY] awvalid = 0, awready = 1
# UVM_INFO ../../src/tb/master//axi_master_monitor.sv(72) @ 235000: uvm_test_top.axi_master_env_h.axi_master_agt.axi_master_mon_h [VALID READY] awvalid = 0, awready = 1
# UVM_INFO ../../src/tb/master//axi_master_monitor.sv(72) @ 245000: uvm_test_top.axi_master_env_h.axi_master_agt.axi_master_mon_h [VALID READY] awvalid = 0, awready = 1
# UVM_INFO ../../src/tb/master//axi_master_monitor.sv(72) @ 255000: uvm_test_top.axi_master_env_h.axi_master_agt.axi_master_mon_h [VALID READY] awvalid = 0, awready = 1
# UVM_INFO ../../src/tb/master//axi_master_monitor.sv(72) @ 265000: uvm_test_top.axi_master_env_h.axi_master_agt.axi_master_mon_h [VALID READY] awvalid = 0, awready = 1
# UVM_INFO ../../src/tb/master//axi_master_monitor.sv(72) @ 275000: uvm_test_top.axi_master_env_h.axi_master_agt.axi_master_mon_h [VALID READY] awvalid = 0, awready = 1
# UVM_INFO ../../src/tb/master//axi_master_monitor.sv(72) @ 285000: uvm_test_top.axi_master_env_h.axi_master_agt.axi_master_mon_h [VALID READY] awvalid = 0, awready = 1
# UVM_INFO ../../src/tb/master//axi_master_monitor.sv(72) @ 295000: uvm_test_top.axi_master_env_h.axi_master_agt.axi_master_mon_h [VALID READY] awvalid = 0, awready = 1
# UVM_INFO ../../src/tb/master//axi_master_monitor.sv(72) @ 305000: uvm_test_top.axi_master_env_h.axi_master_agt.axi_master_mon_h [VALID READY] awvalid = 0, awready = 1
# UVM_INFO ../../src/tb/master//axi_master_monitor.sv(72) @ 315000: uvm_test_top.axi_master_env_h.axi_master_agt.axi_master_mon_h [VALID READY] awvalid = 0, awready = 1
# UVM_INFO ../../src/tb/master//axi_master_monitor.sv(72) @ 325000: uvm_test_top.axi_master_env_h.axi_master_agt.axi_master_mon_h [VALID READY] awvalid = 0, awready = 1
# UVM_INFO ../../src/tb/master//axi_master_monitor.sv(72) @ 335000: uvm_test_top.axi_master_env_h.axi_master_agt.axi_master_mon_h [VALID READY] awvalid = 0, awready = 1
# UVM_INFO ../../src/tb/master//axi_master_monitor.sv(72) @ 345000: uvm_test_top.axi_master_env_h.axi_master_agt.axi_master_mon_h [VALID READY] awvalid = 0, awready = 1
# UVM_INFO ../../src/tb/master//axi_master_monitor.sv(72) @ 355000: uvm_test_top.axi_master_env_h.axi_master_agt.axi_master_mon_h [VALID READY] awvalid = 0, awready = 1
# UVM_INFO ../../src/tb/master//axi_master_monitor.sv(72) @ 365000: uvm_test_top.axi_master_env_h.axi_master_agt.axi_master_mon_h [VALID READY] awvalid = 0, awready = 1
# UVM_INFO ../../src/tb/master//axi_master_monitor.sv(72) @ 375000: uvm_test_top.axi_master_env_h.axi_master_agt.axi_master_mon_h [VALID READY] awvalid = 0, awready = 1
# UVM_INFO ../../src/tb/master//axi_master_monitor.sv(72) @ 385000: uvm_test_top.axi_master_env_h.axi_master_agt.axi_master_mon_h [VALID READY] awvalid = 0, awready = 1
# UVM_INFO ../../src/tb/master//axi_master_monitor.sv(72) @ 395000: uvm_test_top.axi_master_env_h.axi_master_agt.axi_master_mon_h [VALID READY] awvalid = 0, awready = 1
# UVM_INFO ../../src/tb/master//axi_master_monitor.sv(72) @ 405000: uvm_test_top.axi_master_env_h.axi_master_agt.axi_master_mon_h [VALID READY] awvalid = 0, awready = 1
# UVM_INFO ../../src/tb/master//axi_master_monitor.sv(72) @ 415000: uvm_test_top.axi_master_env_h.axi_master_agt.axi_master_mon_h [VALID READY] awvalid = 0, awready = 1
# UVM_INFO ../../src/tb/master//axi_master_monitor.sv(72) @ 425000: uvm_test_top.axi_master_env_h.axi_master_agt.axi_master_mon_h [VALID READY] awvalid = 0, awready = 1
# UVM_INFO ../../src/tb/master//axi_master_monitor.sv(72) @ 435000: uvm_test_top.axi_master_env_h.axi_master_agt.axi_master_mon_h [VALID READY] awvalid = 0, awready = 1
# UVM_INFO ../../src/tb/master//axi_master_monitor.sv(72) @ 445000: uvm_test_top.axi_master_env_h.axi_master_agt.axi_master_mon_h [VALID READY] awvalid = 0, awready = 1
# UVM_INFO ../../src/tb/master//axi_master_monitor.sv(72) @ 455000: uvm_test_top.axi_master_env_h.axi_master_agt.axi_master_mon_h [VALID READY] awvalid = 0, awready = 1
# UVM_INFO ../../src/tb/master//axi_master_monitor.sv(72) @ 465000: uvm_test_top.axi_master_env_h.axi_master_agt.axi_master_mon_h [VALID READY] awvalid = 0, awready = 1
# UVM_INFO ../../src/tb/master//axi_master_monitor.sv(72) @ 475000: uvm_test_top.axi_master_env_h.axi_master_agt.axi_master_mon_h [VALID READY] awvalid = 0, awready = 1
# UVM_INFO ../../src/tb/master//axi_master_monitor.sv(72) @ 485000: uvm_test_top.axi_master_env_h.axi_master_agt.axi_master_mon_h [VALID READY] awvalid = 0, awready = 1
# UVM_INFO ../../src/tb/master//axi_master_monitor.sv(72) @ 495000: uvm_test_top.axi_master_env_h.axi_master_agt.axi_master_mon_h [VALID READY] awvalid = 0, awready = 1
# UVM_INFO ../../src/tb/master//axi_master_monitor.sv(72) @ 505000: uvm_test_top.axi_master_env_h.axi_master_agt.axi_master_mon_h [VALID READY] awvalid = 0, awready = 1
# UVM_INFO ../../src/tb/master//axi_master_monitor.sv(72) @ 515000: uvm_test_top.axi_master_env_h.axi_master_agt.axi_master_mon_h [VALID READY] awvalid = 0, awready = 1
# UVM_INFO ../../src/tb/master//axi_master_monitor.sv(72) @ 525000: uvm_test_top.axi_master_env_h.axi_master_agt.axi_master_mon_h [VALID READY] awvalid = 0, awready = 1
# UVM_INFO ../../src/tb/master//axi_master_monitor.sv(72) @ 535000: uvm_test_top.axi_master_env_h.axi_master_agt.axi_master_mon_h [VALID READY] awvalid = 0, awready = 1
# UVM_INFO ../../src/tb/master//axi_master_monitor.sv(72) @ 545000: uvm_test_top.axi_master_env_h.axi_master_agt.axi_master_mon_h [VALID READY] awvalid = 0, awready = 1
# UVM_INFO ../../src/tb/master//axi_master_monitor.sv(72) @ 555000: uvm_test_top.axi_master_env_h.axi_master_agt.axi_master_mon_h [VALID READY] awvalid = 0, awready = 1
# AFTER FORK JOIN ANY OF MONITOR(BEFORE WRITE CALL
# BVALID AND BREADY 0 1
# INSIDE WRITE FUNCTION OF SCOREBOARD
# UVM_INFO ../../src/tb/env//axi_master_scoreboard.sv(138) @ 565000: uvm_test_top.axi_master_env_h.axi_master_scb [WRITE_SUCCESS] write_success:
# UVM_INFO ../../src/tb/env//axi_master_scoreboard.sv(139) @ 565000: uvm_test_top.axi_master_env_h.axi_master_scb [READ_SUCCESS] read_success:{1:0} 
# UVM_INFO ../../src/tb/env//axi_master_scoreboard.sv(138) @ 565000: uvm_test_top.axi_master_env_h.axi_master_scb [WRITE_SUCCESS] write_success:
# UVM_INFO ../../src/tb/env//axi_master_scoreboard.sv(139) @ 565000: uvm_test_top.axi_master_env_h.axi_master_scb [READ_SUCCESS] read_success:{1:0} {2:0} 
# UVM_INFO ../../src/tb/env//axi_master_scoreboard.sv(138) @ 565000: uvm_test_top.axi_master_env_h.axi_master_scb [WRITE_SUCCESS] write_success:
# UVM_INFO ../../src/tb/env//axi_master_scoreboard.sv(139) @ 565000: uvm_test_top.axi_master_env_h.axi_master_scb [READ_SUCCESS] read_success:{1:0} {2:0} {3:0} 
# UVM_INFO ../../src/tb/env//axi_master_scoreboard.sv(138) @ 565000: uvm_test_top.axi_master_env_h.axi_master_scb [WRITE_SUCCESS] write_success:
# UVM_INFO ../../src/tb/env//axi_master_scoreboard.sv(139) @ 565000: uvm_test_top.axi_master_env_h.axi_master_scb [READ_SUCCESS] read_success:{1:0} {2:0} {3:0} {4:0} 
# UVM_INFO ../../src/tb/env//axi_master_scoreboard.sv(138) @ 565000: uvm_test_top.axi_master_env_h.axi_master_scb [WRITE_SUCCESS] write_success:
# UVM_INFO ../../src/tb/env//axi_master_scoreboard.sv(139) @ 565000: uvm_test_top.axi_master_env_h.axi_master_scb [READ_SUCCESS] read_success:{1:0} {2:0} {3:0} {4:0} {5:0} 
# UVM_INFO ../../src/tb/env//axi_master_scoreboard.sv(138) @ 565000: uvm_test_top.axi_master_env_h.axi_master_scb [WRITE_SUCCESS] write_success:
# UVM_INFO ../../src/tb/env//axi_master_scoreboard.sv(139) @ 565000: uvm_test_top.axi_master_env_h.axi_master_scb [READ_SUCCESS] read_success:{1:0} {2:0} {3:0} {4:0} {5:0} {6:0} 
# UVM_INFO ../../src/tb/env//axi_master_scoreboard.sv(138) @ 565000: uvm_test_top.axi_master_env_h.axi_master_scb [WRITE_SUCCESS] write_success:
# UVM_INFO ../../src/tb/env//axi_master_scoreboard.sv(139) @ 565000: uvm_test_top.axi_master_env_h.axi_master_scb [READ_SUCCESS] read_success:{1:0} {2:0} {3:0} {4:0} {5:0} {6:0} {7:0} 
# UVM_INFO ../../src/tb/env//axi_master_scoreboard.sv(138) @ 565000: uvm_test_top.axi_master_env_h.axi_master_scb [WRITE_SUCCESS] write_success:
# UVM_INFO ../../src/tb/env//axi_master_scoreboard.sv(139) @ 565000: uvm_test_top.axi_master_env_h.axi_master_scb [READ_SUCCESS] read_success:{1:0} {2:0} {3:0} {4:0} {5:0} {6:0} {7:0} {8:0} 
# UVM_INFO ../../src/tb/env//axi_master_scoreboard.sv(138) @ 565000: uvm_test_top.axi_master_env_h.axi_master_scb [WRITE_SUCCESS] write_success:
# UVM_INFO ../../src/tb/env//axi_master_scoreboard.sv(139) @ 565000: uvm_test_top.axi_master_env_h.axi_master_scb [READ_SUCCESS] read_success:{1:0} {2:0} {3:0} {4:0} {5:0} {6:0} {7:0} {8:0} {9:0} 
# UVM_INFO ../../src/tb/env//axi_master_scoreboard.sv(138) @ 565000: uvm_test_top.axi_master_env_h.axi_master_scb [WRITE_SUCCESS] write_success:
# UVM_INFO ../../src/tb/env//axi_master_scoreboard.sv(139) @ 565000: uvm_test_top.axi_master_env_h.axi_master_scb [READ_SUCCESS] read_success:{1:0} {2:0} {3:0} {4:0} {5:0} {6:0} {7:0} {8:0} {9:0} {10:0} 
# UVM_INFO ../../src/tb/env//axi_master_scoreboard.sv(138) @ 565000: uvm_test_top.axi_master_env_h.axi_master_scb [WRITE_SUCCESS] write_success:
# UVM_INFO ../../src/tb/env//axi_master_scoreboard.sv(139) @ 565000: uvm_test_top.axi_master_env_h.axi_master_scb [READ_SUCCESS] read_success:{1:0} {2:0} {3:0} {4:0} {5:0} {6:0} {7:0} {8:0} {9:0} {10:0} {11:0} 
# UVM_INFO ../../src/tb/env//axi_master_scoreboard.sv(138) @ 565000: uvm_test_top.axi_master_env_h.axi_master_scb [WRITE_SUCCESS] write_success:
# UVM_INFO ../../src/tb/env//axi_master_scoreboard.sv(139) @ 565000: uvm_test_top.axi_master_env_h.axi_master_scb [READ_SUCCESS] read_success:{1:0} {2:0} {3:0} {4:0} {5:0} {6:0} {7:0} {8:0} {9:0} {10:0} {11:0} {12:0} 
# UVM_INFO ../../src/tb/env//axi_master_scoreboard.sv(138) @ 565000: uvm_test_top.axi_master_env_h.axi_master_scb [WRITE_SUCCESS] write_success:
# UVM_INFO ../../src/tb/env//axi_master_scoreboard.sv(139) @ 565000: uvm_test_top.axi_master_env_h.axi_master_scb [READ_SUCCESS] read_success:{1:0} {2:0} {3:0} {4:0} {5:0} {6:0} {7:0} {8:0} {9:0} {10:0} {11:0} {12:0} {13:0} 
# UVM_INFO ../../src/tb/env//axi_master_scoreboard.sv(138) @ 565000: uvm_test_top.axi_master_env_h.axi_master_scb [WRITE_SUCCESS] write_success:
# UVM_INFO ../../src/tb/env//axi_master_scoreboard.sv(139) @ 565000: uvm_test_top.axi_master_env_h.axi_master_scb [READ_SUCCESS] read_success:{1:0} {2:0} {3:0} {4:0} {5:0} {6:0} {7:0} {8:0} {9:0} {10:0} {11:0} {12:0} {13:0} {14:0} 
# UVM_INFO ../../src/tb/env//axi_master_scoreboard.sv(138) @ 565000: uvm_test_top.axi_master_env_h.axi_master_scb [WRITE_SUCCESS] write_success:
# UVM_INFO ../../src/tb/env//axi_master_scoreboard.sv(139) @ 565000: uvm_test_top.axi_master_env_h.axi_master_scb [READ_SUCCESS] read_success:{1:0} {2:0} {3:0} {4:0} {5:0} {6:0} {7:0} {8:0} {9:0} {10:0} {11:0} {12:0} {13:0} {14:0} {15:0} 
# UVM_INFO ../../src/tb/env//axi_master_scoreboard.sv(138) @ 565000: uvm_test_top.axi_master_env_h.axi_master_scb [WRITE_SUCCESS] write_success:
# UVM_INFO ../../src/tb/env//axi_master_scoreboard.sv(139) @ 565000: uvm_test_top.axi_master_env_h.axi_master_scb [READ_SUCCESS] read_success:{1:0} {2:0} {3:0} {4:0} {5:0} {6:0} {7:0} {8:0} {9:0} {10:0} {11:0} {12:0} {13:0} {14:0} {15:0} {16:0} 
# UVM_INFO ../../src/tb/env//axi_master_scoreboard.sv(138) @ 565000: uvm_test_top.axi_master_env_h.axi_master_scb [WRITE_SUCCESS] write_success:
# UVM_INFO ../../src/tb/env//axi_master_scoreboard.sv(139) @ 565000: uvm_test_top.axi_master_env_h.axi_master_scb [READ_SUCCESS] read_success:{1:0} {2:0} {3:0} {4:0} {5:0} {6:0} {7:0} {8:0} {9:0} {10:0} {11:0} {12:0} {13:0} {14:0} {15:0} {16:0} {17:0} 
# UVM_INFO ../../src/tb/env//axi_master_scoreboard.sv(138) @ 565000: uvm_test_top.axi_master_env_h.axi_master_scb [WRITE_SUCCESS] write_success:
# UVM_INFO ../../src/tb/env//axi_master_scoreboard.sv(139) @ 565000: uvm_test_top.axi_master_env_h.axi_master_scb [READ_SUCCESS] read_success:{1:0} {2:0} {3:0} {4:0} {5:0} {6:0} {7:0} {8:0} {9:0} {10:0} {11:0} {12:0} {13:0} {14:0} {15:0} {16:0} {17:0} {18:0} 
# UVM_INFO ../../src/tb/env//axi_master_scoreboard.sv(138) @ 565000: uvm_test_top.axi_master_env_h.axi_master_scb [WRITE_SUCCESS] write_success:
# UVM_INFO ../../src/tb/env//axi_master_scoreboard.sv(139) @ 565000: uvm_test_top.axi_master_env_h.axi_master_scb [READ_SUCCESS] read_success:{1:0} {2:0} {3:0} {4:0} {5:0} {6:0} {7:0} {8:0} {9:0} {10:0} {11:0} {12:0} {13:0} {14:0} {15:0} {16:0} {17:0} {18:0} {19:0} 
# UVM_INFO ../../src/tb/env//axi_master_scoreboard.sv(138) @ 565000: uvm_test_top.axi_master_env_h.axi_master_scb [WRITE_SUCCESS] write_success:
# UVM_INFO ../../src/tb/env//axi_master_scoreboard.sv(139) @ 565000: uvm_test_top.axi_master_env_h.axi_master_scb [READ_SUCCESS] read_success:{1:0} {2:0} {3:0} {4:0} {5:0} {6:0} {7:0} {8:0} {9:0} {10:0} {11:0} {12:0} {13:0} {14:0} {15:0} {16:0} {17:0} {18:0} {19:0} {20:0} 
# UVM_INFO ../../src/tb/env//axi_master_scoreboard.sv(138) @ 565000: uvm_test_top.axi_master_env_h.axi_master_scb [WRITE_SUCCESS] write_success:
# UVM_INFO ../../src/tb/env//axi_master_scoreboard.sv(139) @ 565000: uvm_test_top.axi_master_env_h.axi_master_scb [READ_SUCCESS] read_success:{1:0} {2:0} {3:0} {4:0} {5:0} {6:0} {7:0} {8:0} {9:0} {10:0} {11:0} {12:0} {13:0} {14:0} {15:0} {16:0} {17:0} {18:0} {19:0} {20:0} {21:0} 
# UVM_INFO ../../src/tb/env//axi_master_scoreboard.sv(138) @ 565000: uvm_test_top.axi_master_env_h.axi_master_scb [WRITE_SUCCESS] write_success:
# UVM_INFO ../../src/tb/env//axi_master_scoreboard.sv(139) @ 565000: uvm_test_top.axi_master_env_h.axi_master_scb [READ_SUCCESS] read_success:{1:0} {2:0} {3:0} {4:0} {5:0} {6:0} {7:0} {8:0} {9:0} {10:0} {11:0} {12:0} {13:0} {14:0} {15:0} {16:0} {17:0} {18:0} {19:0} {20:0} {21:0} {22:0} 
# UVM_INFO ../../src/tb/env//axi_master_scoreboard.sv(138) @ 565000: uvm_test_top.axi_master_env_h.axi_master_scb [WRITE_SUCCESS] write_success:
# UVM_INFO ../../src/tb/env//axi_master_scoreboard.sv(139) @ 565000: uvm_test_top.axi_master_env_h.axi_master_scb [READ_SUCCESS] read_success:{1:0} {2:0} {3:0} {4:0} {5:0} {6:0} {7:0} {8:0} {9:0} {10:0} {11:0} {12:0} {13:0} {14:0} {15:0} {16:0} {17:0} {18:0} {19:0} {20:0} {21:0} {22:0} {23:0} 
# UVM_INFO ../../src/tb/env//axi_master_scoreboard.sv(138) @ 565000: uvm_test_top.axi_master_env_h.axi_master_scb [WRITE_SUCCESS] write_success:
# UVM_INFO ../../src/tb/env//axi_master_scoreboard.sv(139) @ 565000: uvm_test_top.axi_master_env_h.axi_master_scb [READ_SUCCESS] read_success:{1:0} {2:0} {3:0} {4:0} {5:0} {6:0} {7:0} {8:0} {9:0} {10:0} {11:0} {12:0} {13:0} {14:0} {15:0} {16:0} {17:0} {18:0} {19:0} {20:0} {21:0} {22:0} {23:0} {24:0} 
# UVM_INFO ../../src/tb/env//axi_master_scoreboard.sv(138) @ 565000: uvm_test_top.axi_master_env_h.axi_master_scb [WRITE_SUCCESS] write_success:
# UVM_INFO ../../src/tb/env//axi_master_scoreboard.sv(139) @ 565000: uvm_test_top.axi_master_env_h.axi_master_scb [READ_SUCCESS] read_success:{1:0} {2:0} {3:0} {4:0} {5:0} {6:0} {7:0} {8:0} {9:0} {10:0} {11:0} {12:0} {13:0} {14:0} {15:0} {16:0} {17:0} {18:0} {19:0} {20:0} {21:0} {22:0} {23:0} {24:0} {25:0} 
# UVM_INFO ../../src/tb/env//axi_master_scoreboard.sv(138) @ 565000: uvm_test_top.axi_master_env_h.axi_master_scb [WRITE_SUCCESS] write_success:
# UVM_INFO ../../src/tb/env//axi_master_scoreboard.sv(139) @ 565000: uvm_test_top.axi_master_env_h.axi_master_scb [READ_SUCCESS] read_success:{1:0} {2:0} {3:0} {4:0} {5:0} {6:0} {7:0} {8:0} {9:0} {10:0} {11:0} {12:0} {13:0} {14:0} {15:0} {16:0} {17:0} {18:0} {19:0} {20:0} {21:0} {22:0} {23:0} {24:0} {25:0} {26:0} 
# UVM_INFO ../../src/tb/env//axi_master_scoreboard.sv(138) @ 565000: uvm_test_top.axi_master_env_h.axi_master_scb [WRITE_SUCCESS] write_success:
# UVM_INFO ../../src/tb/env//axi_master_scoreboard.sv(139) @ 565000: uvm_test_top.axi_master_env_h.axi_master_scb [READ_SUCCESS] read_success:{1:0} {2:0} {3:0} {4:0} {5:0} {6:0} {7:0} {8:0} {9:0} {10:0} {11:0} {12:0} {13:0} {14:0} {15:0} {16:0} {17:0} {18:0} {19:0} {20:0} {21:0} {22:0} {23:0} {24:0} {25:0} {26:0} {27:0} 
# UVM_INFO ../../src/tb/env//axi_master_scoreboard.sv(138) @ 565000: uvm_test_top.axi_master_env_h.axi_master_scb [WRITE_SUCCESS] write_success:
# UVM_INFO ../../src/tb/env//axi_master_scoreboard.sv(139) @ 565000: uvm_test_top.axi_master_env_h.axi_master_scb [READ_SUCCESS] read_success:{1:0} {2:0} {3:0} {4:0} {5:0} {6:0} {7:0} {8:0} {9:0} {10:0} {11:0} {12:0} {13:0} {14:0} {15:0} {16:0} {17:0} {18:0} {19:0} {20:0} {21:0} {22:0} {23:0} {24:0} {25:0} {26:0} {27:0} {28:0} 
# UVM_INFO ../../src/tb/env//axi_master_scoreboard.sv(138) @ 565000: uvm_test_top.axi_master_env_h.axi_master_scb [WRITE_SUCCESS] write_success:
# UVM_INFO ../../src/tb/env//axi_master_scoreboard.sv(139) @ 565000: uvm_test_top.axi_master_env_h.axi_master_scb [READ_SUCCESS] read_success:{1:0} {2:0} {3:0} {4:0} {5:0} {6:0} {7:0} {8:0} {9:0} {10:0} {11:0} {12:0} {13:0} {14:0} {15:0} {16:0} {17:0} {18:0} {19:0} {20:0} {21:0} {22:0} {23:0} {24:0} {25:0} {26:0} {27:0} {28:0} {29:0} 
# UVM_INFO ../../src/tb/env//axi_master_scoreboard.sv(138) @ 565000: uvm_test_top.axi_master_env_h.axi_master_scb [WRITE_SUCCESS] write_success:
# UVM_INFO ../../src/tb/env//axi_master_scoreboard.sv(139) @ 565000: uvm_test_top.axi_master_env_h.axi_master_scb [READ_SUCCESS] read_success:{1:0} {2:0} {3:0} {4:0} {5:0} {6:0} {7:0} {8:0} {9:0} {10:0} {11:0} {12:0} {13:0} {14:0} {15:0} {16:0} {17:0} {18:0} {19:0} {20:0} {21:0} {22:0} {23:0} {24:0} {25:0} {26:0} {27:0} {28:0} {29:0} {30:0} 
# UVM_INFO ../../src/tb/env//axi_master_scoreboard.sv(138) @ 565000: uvm_test_top.axi_master_env_h.axi_master_scb [WRITE_SUCCESS] write_success:
# UVM_INFO ../../src/tb/env//axi_master_scoreboard.sv(139) @ 565000: uvm_test_top.axi_master_env_h.axi_master_scb [READ_SUCCESS] read_success:{1:0} {2:0} {3:0} {4:0} {5:0} {6:0} {7:0} {8:0} {9:0} {10:0} {11:0} {12:0} {13:0} {14:0} {15:0} {16:0} {17:0} {18:0} {19:0} {20:0} {21:0} {22:0} {23:0} {24:0} {25:0} {26:0} {27:0} {28:0} {29:0} {30:0} {31:0} 
# UVM_INFO ../../src/tb/env//axi_master_scoreboard.sv(138) @ 565000: uvm_test_top.axi_master_env_h.axi_master_scb [WRITE_SUCCESS] write_success:
# UVM_INFO ../../src/tb/env//axi_master_scoreboard.sv(139) @ 565000: uvm_test_top.axi_master_env_h.axi_master_scb [READ_SUCCESS] read_success:{1:0} {2:0} {3:0} {4:0} {5:0} {6:0} {7:0} {8:0} {9:0} {10:0} {11:0} {12:0} {13:0} {14:0} {15:0} {16:0} {17:0} {18:0} {19:0} {20:0} {21:0} {22:0} {23:0} {24:0} {25:0} {26:0} {27:0} {28:0} {29:0} {30:0} {31:0} {32:0} 
# UVM_INFO ../../src/tb/env//axi_master_scoreboard.sv(138) @ 565000: uvm_test_top.axi_master_env_h.axi_master_scb [WRITE_SUCCESS] write_success:
# UVM_INFO ../../src/tb/env//axi_master_scoreboard.sv(139) @ 565000: uvm_test_top.axi_master_env_h.axi_master_scb [READ_SUCCESS] read_success:{1:0} {2:0} {3:0} {4:0} {5:0} {6:0} {7:0} {8:0} {9:0} {10:0} {11:0} {12:0} {13:0} {14:0} {15:0} {16:0} {17:0} {18:0} {19:0} {20:0} {21:0} {22:0} {23:0} {24:0} {25:0} {26:0} {27:0} {28:0} {29:0} {30:0} {31:0} {32:0} {33:0} 
# UVM_INFO ../../src/tb/env//axi_master_scoreboard.sv(138) @ 565000: uvm_test_top.axi_master_env_h.axi_master_scb [WRITE_SUCCESS] write_success:
# UVM_INFO ../../src/tb/env//axi_master_scoreboard.sv(139) @ 565000: uvm_test_top.axi_master_env_h.axi_master_scb [READ_SUCCESS] read_success:{1:0} {2:0} {3:0} {4:0} {5:0} {6:0} {7:0} {8:0} {9:0} {10:0} {11:0} {12:0} {13:0} {14:0} {15:0} {16:0} {17:0} {18:0} {19:0} {20:0} {21:0} {22:0} {23:0} {24:0} {25:0} {26:0} {27:0} {28:0} {29:0} {30:0} {31:0} {32:0} {33:0} {34:0} 
# UVM_INFO ../../src/tb/env//axi_master_scoreboard.sv(138) @ 565000: uvm_test_top.axi_master_env_h.axi_master_scb [WRITE_SUCCESS] write_success:
# UVM_INFO ../../src/tb/env//axi_master_scoreboard.sv(139) @ 565000: uvm_test_top.axi_master_env_h.axi_master_scb [READ_SUCCESS] read_success:{1:0} {2:0} {3:0} {4:0} {5:0} {6:0} {7:0} {8:0} {9:0} {10:0} {11:0} {12:0} {13:0} {14:0} {15:0} {16:0} {17:0} {18:0} {19:0} {20:0} {21:0} {22:0} {23:0} {24:0} {25:0} {26:0} {27:0} {28:0} {29:0} {30:0} {31:0} {32:0} {33:0} {34:0} {35:0} 
# UVM_INFO ../../src/tb/env//axi_master_scoreboard.sv(138) @ 565000: uvm_test_top.axi_master_env_h.axi_master_scb [WRITE_SUCCESS] write_success:
# UVM_INFO ../../src/tb/env//axi_master_scoreboard.sv(139) @ 565000: uvm_test_top.axi_master_env_h.axi_master_scb [READ_SUCCESS] read_success:{1:0} {2:0} {3:0} {4:0} {5:0} {6:0} {7:0} {8:0} {9:0} {10:0} {11:0} {12:0} {13:0} {14:0} {15:0} {16:0} {17:0} {18:0} {19:0} {20:0} {21:0} {22:0} {23:0} {24:0} {25:0} {26:0} {27:0} {28:0} {29:0} {30:0} {31:0} {32:0} {33:0} {34:0} {35:0} {36:0} 
# UVM_INFO ../../src/tb/env//axi_master_scoreboard.sv(138) @ 565000: uvm_test_top.axi_master_env_h.axi_master_scb [WRITE_SUCCESS] write_success:
# UVM_INFO ../../src/tb/env//axi_master_scoreboard.sv(139) @ 565000: uvm_test_top.axi_master_env_h.axi_master_scb [READ_SUCCESS] read_success:{1:0} {2:0} {3:0} {4:0} {5:0} {6:0} {7:0} {8:0} {9:0} {10:0} {11:0} {12:0} {13:0} {14:0} {15:0} {16:0} {17:0} {18:0} {19:0} {20:0} {21:0} {22:0} {23:0} {24:0} {25:0} {26:0} {27:0} {28:0} {29:0} {30:0} {31:0} {32:0} {33:0} {34:0} {35:0} {36:0} {37:0} 
# UVM_INFO ../../src/tb/env//axi_master_scoreboard.sv(138) @ 565000: uvm_test_top.axi_master_env_h.axi_master_scb [WRITE_SUCCESS] write_success:
# UVM_INFO ../../src/tb/env//axi_master_scoreboard.sv(139) @ 565000: uvm_test_top.axi_master_env_h.axi_master_scb [READ_SUCCESS] read_success:{1:0} {2:0} {3:0} {4:0} {5:0} {6:0} {7:0} {8:0} {9:0} {10:0} {11:0} {12:0} {13:0} {14:0} {15:0} {16:0} {17:0} {18:0} {19:0} {20:0} {21:0} {22:0} {23:0} {24:0} {25:0} {26:0} {27:0} {28:0} {29:0} {30:0} {31:0} {32:0} {33:0} {34:0} {35:0} {36:0} {37:0} {38:0} 
# UVM_INFO ../../src/tb/env//axi_master_scoreboard.sv(138) @ 565000: uvm_test_top.axi_master_env_h.axi_master_scb [WRITE_SUCCESS] write_success:
# UVM_INFO ../../src/tb/env//axi_master_scoreboard.sv(139) @ 565000: uvm_test_top.axi_master_env_h.axi_master_scb [READ_SUCCESS] read_success:{1:0} {2:0} {3:0} {4:0} {5:0} {6:0} {7:0} {8:0} {9:0} {10:0} {11:0} {12:0} {13:0} {14:0} {15:0} {16:0} {17:0} {18:0} {19:0} {20:0} {21:0} {22:0} {23:0} {24:0} {25:0} {26:0} {27:0} {28:0} {29:0} {30:0} {31:0} {32:0} {33:0} {34:0} {35:0} {36:0} {37:0} {38:0} {39:0} 
# UVM_INFO ../../src/tb/env//axi_master_scoreboard.sv(138) @ 565000: uvm_test_top.axi_master_env_h.axi_master_scb [WRITE_SUCCESS] write_success:
# UVM_INFO ../../src/tb/env//axi_master_scoreboard.sv(139) @ 565000: uvm_test_top.axi_master_env_h.axi_master_scb [READ_SUCCESS] read_success:{1:0} {2:0} {3:0} {4:0} {5:0} {6:0} {7:0} {8:0} {9:0} {10:0} {11:0} {12:0} {13:0} {14:0} {15:0} {16:0} {17:0} {18:0} {19:0} {20:0} {21:0} {22:0} {23:0} {24:0} {25:0} {26:0} {27:0} {28:0} {29:0} {30:0} {31:0} {32:0} {33:0} {34:0} {35:0} {36:0} {37:0} {38:0} {39:0} {40:0} 
# UVM_INFO ../../src/tb/env//axi_master_scoreboard.sv(138) @ 565000: uvm_test_top.axi_master_env_h.axi_master_scb [WRITE_SUCCESS] write_success:
# UVM_INFO ../../src/tb/env//axi_master_scoreboard.sv(139) @ 565000: uvm_test_top.axi_master_env_h.axi_master_scb [READ_SUCCESS] read_success:{1:0} {2:0} {3:0} {4:0} {5:0} {6:0} {7:0} {8:0} {9:0} {10:0} {11:0} {12:0} {13:0} {14:0} {15:0} {16:0} {17:0} {18:0} {19:0} {20:0} {21:0} {22:0} {23:0} {24:0} {25:0} {26:0} {27:0} {28:0} {29:0} {30:0} {31:0} {32:0} {33:0} {34:0} {35:0} {36:0} {37:0} {38:0} {39:0} {40:0} {41:0} 
# UVM_INFO ../../src/tb/env//axi_master_scoreboard.sv(138) @ 565000: uvm_test_top.axi_master_env_h.axi_master_scb [WRITE_SUCCESS] write_success:
# UVM_INFO ../../src/tb/env//axi_master_scoreboard.sv(139) @ 565000: uvm_test_top.axi_master_env_h.axi_master_scb [READ_SUCCESS] read_success:{1:0} {2:0} {3:0} {4:0} {5:0} {6:0} {7:0} {8:0} {9:0} {10:0} {11:0} {12:0} {13:0} {14:0} {15:0} {16:0} {17:0} {18:0} {19:0} {20:0} {21:0} {22:0} {23:0} {24:0} {25:0} {26:0} {27:0} {28:0} {29:0} {30:0} {31:0} {32:0} {33:0} {34:0} {35:0} {36:0} {37:0} {38:0} {39:0} {40:0} {41:0} {42:0} 
# UVM_INFO ../../src/tb/env//axi_master_scoreboard.sv(138) @ 565000: uvm_test_top.axi_master_env_h.axi_master_scb [WRITE_SUCCESS] write_success:
# UVM_INFO ../../src/tb/env//axi_master_scoreboard.sv(139) @ 565000: uvm_test_top.axi_master_env_h.axi_master_scb [READ_SUCCESS] read_success:{1:0} {2:0} {3:0} {4:0} {5:0} {6:0} {7:0} {8:0} {9:0} {10:0} {11:0} {12:0} {13:0} {14:0} {15:0} {16:0} {17:0} {18:0} {19:0} {20:0} {21:0} {22:0} {23:0} {24:0} {25:0} {26:0} {27:0} {28:0} {29:0} {30:0} {31:0} {32:0} {33:0} {34:0} {35:0} {36:0} {37:0} {38:0} {39:0} {40:0} {41:0} {42:0} {43:0} 
# UVM_INFO ../../src/tb/env//axi_master_scoreboard.sv(138) @ 565000: uvm_test_top.axi_master_env_h.axi_master_scb [WRITE_SUCCESS] write_success:
# UVM_INFO ../../src/tb/env//axi_master_scoreboard.sv(139) @ 565000: uvm_test_top.axi_master_env_h.axi_master_scb [READ_SUCCESS] read_success:{1:0} {2:0} {3:0} {4:0} {5:0} {6:0} {7:0} {8:0} {9:0} {10:0} {11:0} {12:0} {13:0} {14:0} {15:0} {16:0} {17:0} {18:0} {19:0} {20:0} {21:0} {22:0} {23:0} {24:0} {25:0} {26:0} {27:0} {28:0} {29:0} {30:0} {31:0} {32:0} {33:0} {34:0} {35:0} {36:0} {37:0} {38:0} {39:0} {40:0} {41:0} {42:0} {43:0} {44:0} 
# UVM_INFO ../../src/tb/env//axi_master_scoreboard.sv(138) @ 565000: uvm_test_top.axi_master_env_h.axi_master_scb [WRITE_SUCCESS] write_success:
# UVM_INFO ../../src/tb/env//axi_master_scoreboard.sv(139) @ 565000: uvm_test_top.axi_master_env_h.axi_master_scb [READ_SUCCESS] read_success:{1:0} {2:0} {3:0} {4:0} {5:0} {6:0} {7:0} {8:0} {9:0} {10:0} {11:0} {12:0} {13:0} {14:0} {15:0} {16:0} {17:0} {18:0} {19:0} {20:0} {21:0} {22:0} {23:0} {24:0} {25:0} {26:0} {27:0} {28:0} {29:0} {30:0} {31:0} {32:0} {33:0} {34:0} {35:0} {36:0} {37:0} {38:0} {39:0} {40:0} {41:0} {42:0} {43:0} {44:0} {45:0} 
# UVM_INFO ../../src/tb/env//axi_master_scoreboard.sv(138) @ 565000: uvm_test_top.axi_master_env_h.axi_master_scb [WRITE_SUCCESS] write_success:
# UVM_INFO ../../src/tb/env//axi_master_scoreboard.sv(139) @ 565000: uvm_test_top.axi_master_env_h.axi_master_scb [READ_SUCCESS] read_success:{1:0} {2:0} {3:0} {4:0} {5:0} {6:0} {7:0} {8:0} {9:0} {10:0} {11:0} {12:0} {13:0} {14:0} {15:0} {16:0} {17:0} {18:0} {19:0} {20:0} {21:0} {22:0} {23:0} {24:0} {25:0} {26:0} {27:0} {28:0} {29:0} {30:0} {31:0} {32:0} {33:0} {34:0} {35:0} {36:0} {37:0} {38:0} {39:0} {40:0} {41:0} {42:0} {43:0} {44:0} {45:0} {46:0} 
# UVM_INFO ../../src/tb/env//axi_master_scoreboard.sv(138) @ 565000: uvm_test_top.axi_master_env_h.axi_master_scb [WRITE_SUCCESS] write_success:
# UVM_INFO ../../src/tb/env//axi_master_scoreboard.sv(139) @ 565000: uvm_test_top.axi_master_env_h.axi_master_scb [READ_SUCCESS] read_success:{1:0} {2:0} {3:0} {4:0} {5:0} {6:0} {7:0} {8:0} {9:0} {10:0} {11:0} {12:0} {13:0} {14:0} {15:0} {16:0} {17:0} {18:0} {19:0} {20:0} {21:0} {22:0} {23:0} {24:0} {25:0} {26:0} {27:0} {28:0} {29:0} {30:0} {31:0} {32:0} {33:0} {34:0} {35:0} {36:0} {37:0} {38:0} {39:0} {40:0} {41:0} {42:0} {43:0} {44:0} {45:0} {46:0} {47:0} 
# UVM_INFO ../../src/tb/env//axi_master_scoreboard.sv(138) @ 565000: uvm_test_top.axi_master_env_h.axi_master_scb [WRITE_SUCCESS] write_success:
# UVM_INFO ../../src/tb/env//axi_master_scoreboard.sv(139) @ 565000: uvm_test_top.axi_master_env_h.axi_master_scb [READ_SUCCESS] read_success:{1:0} {2:0} {3:0} {4:0} {5:0} {6:0} {7:0} {8:0} {9:0} {10:0} {11:0} {12:0} {13:0} {14:0} {15:0} {16:0} {17:0} {18:0} {19:0} {20:0} {21:0} {22:0} {23:0} {24:0} {25:0} {26:0} {27:0} {28:0} {29:0} {30:0} {31:0} {32:0} {33:0} {34:0} {35:0} {36:0} {37:0} {38:0} {39:0} {40:0} {41:0} {42:0} {43:0} {44:0} {45:0} {46:0} {47:0} {48:0} 
# UVM_INFO ../../src/tb/env//axi_master_scoreboard.sv(138) @ 565000: uvm_test_top.axi_master_env_h.axi_master_scb [WRITE_SUCCESS] write_success:
# UVM_INFO ../../src/tb/env//axi_master_scoreboard.sv(139) @ 565000: uvm_test_top.axi_master_env_h.axi_master_scb [READ_SUCCESS] read_success:{1:0} {2:0} {3:0} {4:0} {5:0} {6:0} {7:0} {8:0} {9:0} {10:0} {11:0} {12:0} {13:0} {14:0} {15:0} {16:0} {17:0} {18:0} {19:0} {20:0} {21:0} {22:0} {23:0} {24:0} {25:0} {26:0} {27:0} {28:0} {29:0} {30:0} {31:0} {32:0} {33:0} {34:0} {35:0} {36:0} {37:0} {38:0} {39:0} {40:0} {41:0} {42:0} {43:0} {44:0} {45:0} {46:0} {47:0} {48:0} {49:0} 
# UVM_INFO ../../src/tb/env//axi_master_scoreboard.sv(138) @ 565000: uvm_test_top.axi_master_env_h.axi_master_scb [WRITE_SUCCESS] write_success:
# UVM_INFO ../../src/tb/env//axi_master_scoreboard.sv(139) @ 565000: uvm_test_top.axi_master_env_h.axi_master_scb [READ_SUCCESS] read_success:{1:0} {2:0} {3:0} {4:0} {5:0} {6:0} {7:0} {8:0} {9:0} {10:0} {11:0} {12:0} {13:0} {14:0} {15:0} {16:0} {17:0} {18:0} {19:0} {20:0} {21:0} {22:0} {23:0} {24:0} {25:0} {26:0} {27:0} {28:0} {29:0} {30:0} {31:0} {32:0} {33:0} {34:0} {35:0} {36:0} {37:0} {38:0} {39:0} {40:0} {41:0} {42:0} {43:0} {44:0} {45:0} {46:0} {47:0} {48:0} {49:0} {50:0} 
# UVM_INFO ../../src/tb/env//axi_master_scoreboard.sv(138) @ 565000: uvm_test_top.axi_master_env_h.axi_master_scb [WRITE_SUCCESS] write_success:
# UVM_INFO ../../src/tb/env//axi_master_scoreboard.sv(139) @ 565000: uvm_test_top.axi_master_env_h.axi_master_scb [READ_SUCCESS] read_success:{1:0} {2:0} {3:0} {4:0} {5:0} {6:0} {7:0} {8:0} {9:0} {10:0} {11:0} {12:0} {13:0} {14:0} {15:0} {16:0} {17:0} {18:0} {19:0} {20:0} {21:0} {22:0} {23:0} {24:0} {25:0} {26:0} {27:0} {28:0} {29:0} {30:0} {31:0} {32:0} {33:0} {34:0} {35:0} {36:0} {37:0} {38:0} {39:0} {40:0} {41:0} {42:0} {43:0} {44:0} {45:0} {46:0} {47:0} {48:0} {49:0} {50:0} {51:0} 
# UVM_INFO ../../src/tb/master//axi_master_monitor.sv(72) @ 565000: uvm_test_top.axi_master_env_h.axi_master_agt.axi_master_mon_h [VALID READY] awvalid = 0, awready = 1
# UVM_INFO ../../src/tb/master//axi_master_monitor.sv(72) @ 575000: uvm_test_top.axi_master_env_h.axi_master_agt.axi_master_mon_h [VALID READY] awvalid = 0, awready = 1
# at time 575000 reset is 0
# UVM_INFO ../../src/tb/master//axi_master_monitor.sv(72) @ 575000: uvm_test_top.axi_master_env_h.axi_master_agt.axi_master_mon_h [VALID READY] awvalid = 0, awready = 1
# UVM_INFO ../../src/tb/master//axi_master_monitor.sv(72) @ 585000: uvm_test_top.axi_master_env_h.axi_master_agt.axi_master_mon_h [VALID READY] awvalid = 0, awready = 1
# UVM_INFO ../../src/tb/master//axi_master_monitor.sv(72) @ 585000: uvm_test_top.axi_master_env_h.axi_master_agt.axi_master_mon_h [VALID READY] awvalid = 0, awready = 1
# UVM_INFO ../../src/tb/master//axi_master_monitor.sv(72) @ 595000: uvm_test_top.axi_master_env_h.axi_master_agt.axi_master_mon_h [VALID READY] awvalid = 0, awready = 1
# UVM_INFO ../../src/tb/master//axi_master_monitor.sv(72) @ 595000: uvm_test_top.axi_master_env_h.axi_master_agt.axi_master_mon_h [VALID READY] awvalid = 0, awready = 1
# UVM_INFO ../../src/tb/master//axi_master_monitor.sv(72) @ 605000: uvm_test_top.axi_master_env_h.axi_master_agt.axi_master_mon_h [VALID READY] awvalid = 0, awready = 1
# UVM_INFO ../../src/tb/master//axi_master_monitor.sv(72) @ 605000: uvm_test_top.axi_master_env_h.axi_master_agt.axi_master_mon_h [VALID READY] awvalid = 0, awready = 1
# UVM_INFO ../../src/tb/master//axi_master_monitor.sv(72) @ 615000: uvm_test_top.axi_master_env_h.axi_master_agt.axi_master_mon_h [VALID READY] awvalid = 0, awready = 1
# UVM_INFO ../../src/tb/master//axi_master_monitor.sv(72) @ 615000: uvm_test_top.axi_master_env_h.axi_master_agt.axi_master_mon_h [VALID READY] awvalid = 0, awready = 1
# UVM_INFO ../../src/tb/master//axi_master_monitor.sv(72) @ 625000: uvm_test_top.axi_master_env_h.axi_master_agt.axi_master_mon_h [VALID READY] awvalid = 0, awready = 1
# UVM_INFO ../../src/tb/master//axi_master_monitor.sv(72) @ 625000: uvm_test_top.axi_master_env_h.axi_master_agt.axi_master_mon_h [VALID READY] awvalid = 0, awready = 1
# UVM_INFO ../../src/tb/master//axi_master_monitor.sv(72) @ 635000: uvm_test_top.axi_master_env_h.axi_master_agt.axi_master_mon_h [VALID READY] awvalid = 0, awready = 1
# UVM_INFO ../../src/tb/master//axi_master_monitor.sv(72) @ 635000: uvm_test_top.axi_master_env_h.axi_master_agt.axi_master_mon_h [VALID READY] awvalid = 0, awready = 1
# UVM_INFO ../../src/tb/master//axi_master_monitor.sv(72) @ 645000: uvm_test_top.axi_master_env_h.axi_master_agt.axi_master_mon_h [VALID READY] awvalid = 0, awready = 1
# UVM_INFO ../../src/tb/master//axi_master_monitor.sv(72) @ 645000: uvm_test_top.axi_master_env_h.axi_master_agt.axi_master_mon_h [VALID READY] awvalid = 0, awready = 1
# UVM_INFO ../../src/tb/master//axi_master_monitor.sv(72) @ 655000: uvm_test_top.axi_master_env_h.axi_master_agt.axi_master_mon_h [VALID READY] awvalid = 0, awready = 1
# UVM_INFO ../../src/tb/master//axi_master_monitor.sv(72) @ 655000: uvm_test_top.axi_master_env_h.axi_master_agt.axi_master_mon_h [VALID READY] awvalid = 0, awready = 1
# UVM_INFO ../../src/tb/master//axi_master_monitor.sv(72) @ 665000: uvm_test_top.axi_master_env_h.axi_master_agt.axi_master_mon_h [VALID READY] awvalid = 0, awready = 1
# UVM_INFO ../../src/tb/master//axi_master_monitor.sv(72) @ 665000: uvm_test_top.axi_master_env_h.axi_master_agt.axi_master_mon_h [VALID READY] awvalid = 0, awready = 1
# UVM_INFO ../../src/tb/master//axi_master_monitor.sv(72) @ 675000: uvm_test_top.axi_master_env_h.axi_master_agt.axi_master_mon_h [VALID READY] awvalid = 0, awready = 1
# UVM_INFO ../../src/tb/master//axi_master_monitor.sv(72) @ 675000: uvm_test_top.axi_master_env_h.axi_master_agt.axi_master_mon_h [VALID READY] awvalid = 0, awready = 1
# UVM_INFO ../../src/tb/master//axi_master_monitor.sv(72) @ 685000: uvm_test_top.axi_master_env_h.axi_master_agt.axi_master_mon_h [VALID READY] awvalid = 0, awready = 1
# UVM_INFO ../../src/tb/master//axi_master_monitor.sv(72) @ 685000: uvm_test_top.axi_master_env_h.axi_master_agt.axi_master_mon_h [VALID READY] awvalid = 0, awready = 1
# UVM_INFO ../../src/tb/master//axi_master_monitor.sv(72) @ 695000: uvm_test_top.axi_master_env_h.axi_master_agt.axi_master_mon_h [VALID READY] awvalid = 0, awready = 1
# UVM_INFO ../../src/tb/master//axi_master_monitor.sv(72) @ 695000: uvm_test_top.axi_master_env_h.axi_master_agt.axi_master_mon_h [VALID READY] awvalid = 0, awready = 1
# UVM_INFO ../../src/tb/master//axi_master_monitor.sv(72) @ 705000: uvm_test_top.axi_master_env_h.axi_master_agt.axi_master_mon_h [VALID READY] awvalid = 0, awready = 1
# UVM_INFO ../../src/tb/master//axi_master_monitor.sv(72) @ 705000: uvm_test_top.axi_master_env_h.axi_master_agt.axi_master_mon_h [VALID READY] awvalid = 0, awready = 1
# UVM_INFO ../../src/tb/master//axi_master_monitor.sv(72) @ 715000: uvm_test_top.axi_master_env_h.axi_master_agt.axi_master_mon_h [VALID READY] awvalid = 0, awready = 1
# UVM_INFO ../../src/tb/master//axi_master_monitor.sv(72) @ 715000: uvm_test_top.axi_master_env_h.axi_master_agt.axi_master_mon_h [VALID READY] awvalid = 0, awready = 1
# UVM_INFO ../../src/tb/master//axi_master_monitor.sv(72) @ 725000: uvm_test_top.axi_master_env_h.axi_master_agt.axi_master_mon_h [VALID READY] awvalid = 0, awready = 1
# UVM_INFO ../../src/tb/master//axi_master_monitor.sv(72) @ 725000: uvm_test_top.axi_master_env_h.axi_master_agt.axi_master_mon_h [VALID READY] awvalid = 0, awready = 1
# UVM_INFO ../../src/tb/master//axi_master_monitor.sv(72) @ 735000: uvm_test_top.axi_master_env_h.axi_master_agt.axi_master_mon_h [VALID READY] awvalid = 0, awready = 1
# UVM_INFO ../../src/tb/master//axi_master_monitor.sv(72) @ 735000: uvm_test_top.axi_master_env_h.axi_master_agt.axi_master_mon_h [VALID READY] awvalid = 0, awready = 1
# UVM_INFO ../../src/tb/master//axi_master_monitor.sv(72) @ 745000: uvm_test_top.axi_master_env_h.axi_master_agt.axi_master_mon_h [VALID READY] awvalid = 0, awready = 1
# UVM_INFO ../../src/tb/master//axi_master_monitor.sv(72) @ 745000: uvm_test_top.axi_master_env_h.axi_master_agt.axi_master_mon_h [VALID READY] awvalid = 0, awready = 1
# UVM_INFO ../../src/tb/master//axi_master_monitor.sv(72) @ 755000: uvm_test_top.axi_master_env_h.axi_master_agt.axi_master_mon_h [VALID READY] awvalid = 0, awready = 1
# UVM_INFO ../../src/tb/master//axi_master_monitor.sv(72) @ 755000: uvm_test_top.axi_master_env_h.axi_master_agt.axi_master_mon_h [VALID READY] awvalid = 0, awready = 1
# UVM_INFO ../../src/tb/master//axi_master_monitor.sv(72) @ 765000: uvm_test_top.axi_master_env_h.axi_master_agt.axi_master_mon_h [VALID READY] awvalid = 0, awready = 1
# UVM_INFO ../../src/tb/master//axi_master_monitor.sv(72) @ 765000: uvm_test_top.axi_master_env_h.axi_master_agt.axi_master_mon_h [VALID READY] awvalid = 0, awready = 1
# UVM_INFO ../../src/tb/master//axi_master_monitor.sv(72) @ 775000: uvm_test_top.axi_master_env_h.axi_master_agt.axi_master_mon_h [VALID READY] awvalid = 0, awready = 1
# UVM_INFO ../../src/tb/master//axi_master_monitor.sv(72) @ 775000: uvm_test_top.axi_master_env_h.axi_master_agt.axi_master_mon_h [VALID READY] awvalid = 0, awready = 1
# UVM_INFO ../../src/tb/master//axi_master_monitor.sv(72) @ 785000: uvm_test_top.axi_master_env_h.axi_master_agt.axi_master_mon_h [VALID READY] awvalid = 0, awready = 1
# UVM_INFO ../../src/tb/master//axi_master_monitor.sv(72) @ 785000: uvm_test_top.axi_master_env_h.axi_master_agt.axi_master_mon_h [VALID READY] awvalid = 0, awready = 1
# UVM_INFO ../../src/tb/master//axi_master_monitor.sv(72) @ 795000: uvm_test_top.axi_master_env_h.axi_master_agt.axi_master_mon_h [VALID READY] awvalid = 0, awready = 1
# UVM_INFO ../../src/tb/master//axi_master_monitor.sv(72) @ 795000: uvm_test_top.axi_master_env_h.axi_master_agt.axi_master_mon_h [VALID READY] awvalid = 0, awready = 1
# UVM_INFO ../../src/tb/master//axi_master_monitor.sv(72) @ 805000: uvm_test_top.axi_master_env_h.axi_master_agt.axi_master_mon_h [VALID READY] awvalid = 0, awready = 1
# UVM_INFO ../../src/tb/master//axi_master_monitor.sv(72) @ 805000: uvm_test_top.axi_master_env_h.axi_master_agt.axi_master_mon_h [VALID READY] awvalid = 0, awready = 1
# UVM_INFO ../../src/tb/master//axi_master_monitor.sv(72) @ 815000: uvm_test_top.axi_master_env_h.axi_master_agt.axi_master_mon_h [VALID READY] awvalid = 0, awready = 1
# UVM_INFO ../../src/tb/master//axi_master_monitor.sv(72) @ 815000: uvm_test_top.axi_master_env_h.axi_master_agt.axi_master_mon_h [VALID READY] awvalid = 0, awready = 1
# UVM_INFO ../../src/tb/master//axi_master_monitor.sv(72) @ 825000: uvm_test_top.axi_master_env_h.axi_master_agt.axi_master_mon_h [VALID READY] awvalid = 0, awready = 1
# UVM_INFO ../../src/tb/master//axi_master_monitor.sv(72) @ 825000: uvm_test_top.axi_master_env_h.axi_master_agt.axi_master_mon_h [VALID READY] awvalid = 0, awready = 1
# UVM_INFO ../../src/tb/master//axi_master_monitor.sv(72) @ 835000: uvm_test_top.axi_master_env_h.axi_master_agt.axi_master_mon_h [VALID READY] awvalid = 0, awready = 1
# UVM_INFO ../../src/tb/master//axi_master_monitor.sv(72) @ 835000: uvm_test_top.axi_master_env_h.axi_master_agt.axi_master_mon_h [VALID READY] awvalid = 0, awready = 1
# UVM_INFO ../../src/tb/master//axi_master_monitor.sv(72) @ 845000: uvm_test_top.axi_master_env_h.axi_master_agt.axi_master_mon_h [VALID READY] awvalid = 0, awready = 1
# UVM_INFO ../../src/tb/master//axi_master_monitor.sv(72) @ 845000: uvm_test_top.axi_master_env_h.axi_master_agt.axi_master_mon_h [VALID READY] awvalid = 0, awready = 1
# UVM_INFO ../../src/tb/master//axi_master_monitor.sv(72) @ 855000: uvm_test_top.axi_master_env_h.axi_master_agt.axi_master_mon_h [VALID READY] awvalid = 0, awready = 1
# UVM_INFO ../../src/tb/master//axi_master_monitor.sv(72) @ 855000: uvm_test_top.axi_master_env_h.axi_master_agt.axi_master_mon_h [VALID READY] awvalid = 0, awready = 1
# UVM_INFO ../../src/tb/master//axi_master_monitor.sv(72) @ 865000: uvm_test_top.axi_master_env_h.axi_master_agt.axi_master_mon_h [VALID READY] awvalid = 0, awready = 1
# UVM_INFO ../../src/tb/master//axi_master_monitor.sv(72) @ 865000: uvm_test_top.axi_master_env_h.axi_master_agt.axi_master_mon_h [VALID READY] awvalid = 0, awready = 1
# UVM_INFO ../../src/tb/master//axi_master_monitor.sv(72) @ 875000: uvm_test_top.axi_master_env_h.axi_master_agt.axi_master_mon_h [VALID READY] awvalid = 0, awready = 1
# UVM_INFO ../../src/tb/master//axi_master_monitor.sv(72) @ 875000: uvm_test_top.axi_master_env_h.axi_master_agt.axi_master_mon_h [VALID READY] awvalid = 0, awready = 1
# UVM_INFO ../../src/tb/master//axi_master_monitor.sv(72) @ 885000: uvm_test_top.axi_master_env_h.axi_master_agt.axi_master_mon_h [VALID READY] awvalid = 0, awready = 1
# UVM_INFO ../../src/tb/master//axi_master_monitor.sv(72) @ 885000: uvm_test_top.axi_master_env_h.axi_master_agt.axi_master_mon_h [VALID READY] awvalid = 0, awready = 1
# UVM_INFO ../../src/tb/master//axi_master_monitor.sv(72) @ 895000: uvm_test_top.axi_master_env_h.axi_master_agt.axi_master_mon_h [VALID READY] awvalid = 0, awready = 1
# UVM_INFO ../../src/tb/master//axi_master_monitor.sv(72) @ 895000: uvm_test_top.axi_master_env_h.axi_master_agt.axi_master_mon_h [VALID READY] awvalid = 0, awready = 1
# UVM_INFO ../../src/tb/master//axi_master_monitor.sv(72) @ 905000: uvm_test_top.axi_master_env_h.axi_master_agt.axi_master_mon_h [VALID READY] awvalid = 0, awready = 1
# UVM_INFO ../../src/tb/master//axi_master_monitor.sv(72) @ 905000: uvm_test_top.axi_master_env_h.axi_master_agt.axi_master_mon_h [VALID READY] awvalid = 0, awready = 1
# UVM_INFO ../../src/tb/master//axi_master_monitor.sv(72) @ 915000: uvm_test_top.axi_master_env_h.axi_master_agt.axi_master_mon_h [VALID READY] awvalid = 0, awready = 1
# UVM_INFO ../../src/tb/master//axi_master_monitor.sv(72) @ 915000: uvm_test_top.axi_master_env_h.axi_master_agt.axi_master_mon_h [VALID READY] awvalid = 0, awready = 1
# UVM_INFO ../../src/tb/master//axi_master_monitor.sv(72) @ 925000: uvm_test_top.axi_master_env_h.axi_master_agt.axi_master_mon_h [VALID READY] awvalid = 0, awready = 1
# UVM_INFO ../../src/tb/master//axi_master_monitor.sv(72) @ 925000: uvm_test_top.axi_master_env_h.axi_master_agt.axi_master_mon_h [VALID READY] awvalid = 0, awready = 1
# UVM_INFO ../../src/tb/master//axi_master_monitor.sv(72) @ 935000: uvm_test_top.axi_master_env_h.axi_master_agt.axi_master_mon_h [VALID READY] awvalid = 0, awready = 1
# UVM_INFO ../../src/tb/master//axi_master_monitor.sv(72) @ 935000: uvm_test_top.axi_master_env_h.axi_master_agt.axi_master_mon_h [VALID READY] awvalid = 0, awready = 1
# UVM_INFO ../../src/tb/master//axi_master_monitor.sv(72) @ 945000: uvm_test_top.axi_master_env_h.axi_master_agt.axi_master_mon_h [VALID READY] awvalid = 0, awready = 1
# UVM_INFO ../../src/tb/master//axi_master_monitor.sv(72) @ 945000: uvm_test_top.axi_master_env_h.axi_master_agt.axi_master_mon_h [VALID READY] awvalid = 0, awready = 1
# UVM_INFO ../../src/tb/master//axi_master_monitor.sv(72) @ 955000: uvm_test_top.axi_master_env_h.axi_master_agt.axi_master_mon_h [VALID READY] awvalid = 0, awready = 1
# UVM_INFO ../../src/tb/master//axi_master_monitor.sv(72) @ 955000: uvm_test_top.axi_master_env_h.axi_master_agt.axi_master_mon_h [VALID READY] awvalid = 0, awready = 1
# UVM_INFO ../../src/tb/master//axi_master_monitor.sv(72) @ 965000: uvm_test_top.axi_master_env_h.axi_master_agt.axi_master_mon_h [VALID READY] awvalid = 0, awready = 1
# UVM_INFO ../../src/tb/master//axi_master_monitor.sv(72) @ 965000: uvm_test_top.axi_master_env_h.axi_master_agt.axi_master_mon_h [VALID READY] awvalid = 0, awready = 1
# UVM_INFO ../../src/tb/master//axi_master_monitor.sv(72) @ 975000: uvm_test_top.axi_master_env_h.axi_master_agt.axi_master_mon_h [VALID READY] awvalid = 0, awready = 1
# UVM_INFO ../../src/tb/master//axi_master_monitor.sv(72) @ 975000: uvm_test_top.axi_master_env_h.axi_master_agt.axi_master_mon_h [VALID READY] awvalid = 0, awready = 1
# UVM_INFO ../../src/tb/master//axi_master_monitor.sv(72) @ 985000: uvm_test_top.axi_master_env_h.axi_master_agt.axi_master_mon_h [VALID READY] awvalid = 0, awready = 1
# UVM_INFO ../../src/tb/master//axi_master_monitor.sv(72) @ 985000: uvm_test_top.axi_master_env_h.axi_master_agt.axi_master_mon_h [VALID READY] awvalid = 0, awready = 1
# UVM_INFO ../../src/tb/master//axi_master_monitor.sv(72) @ 995000: uvm_test_top.axi_master_env_h.axi_master_agt.axi_master_mon_h [VALID READY] awvalid = 0, awready = 1
# UVM_INFO ../../src/tb/master//axi_master_monitor.sv(72) @ 995000: uvm_test_top.axi_master_env_h.axi_master_agt.axi_master_mon_h [VALID READY] awvalid = 0, awready = 1
# UVM_INFO ../../src/tb/master//axi_master_monitor.sv(72) @ 1005000: uvm_test_top.axi_master_env_h.axi_master_agt.axi_master_mon_h [VALID READY] awvalid = 0, awready = 1
# UVM_INFO ../../src/tb/master//axi_master_monitor.sv(72) @ 1005000: uvm_test_top.axi_master_env_h.axi_master_agt.axi_master_mon_h [VALID READY] awvalid = 0, awready = 1
# UVM_INFO ../../src/tb/master//axi_master_monitor.sv(72) @ 1015000: uvm_test_top.axi_master_env_h.axi_master_agt.axi_master_mon_h [VALID READY] awvalid = 0, awready = 1
# UVM_INFO ../../src/tb/master//axi_master_monitor.sv(72) @ 1015000: uvm_test_top.axi_master_env_h.axi_master_agt.axi_master_mon_h [VALID READY] awvalid = 0, awready = 1
# UVM_INFO ../../src/tb/master//axi_master_monitor.sv(72) @ 1025000: uvm_test_top.axi_master_env_h.axi_master_agt.axi_master_mon_h [VALID READY] awvalid = 0, awready = 1
# UVM_INFO ../../src/tb/master//axi_master_monitor.sv(72) @ 1025000: uvm_test_top.axi_master_env_h.axi_master_agt.axi_master_mon_h [VALID READY] awvalid = 0, awready = 1
# UVM_INFO ../../src/tb/master//axi_master_monitor.sv(72) @ 1035000: uvm_test_top.axi_master_env_h.axi_master_agt.axi_master_mon_h [VALID READY] awvalid = 0, awready = 1
# UVM_INFO ../../src/tb/master//axi_master_monitor.sv(72) @ 1035000: uvm_test_top.axi_master_env_h.axi_master_agt.axi_master_mon_h [VALID READY] awvalid = 0, awready = 1
# UVM_INFO ../../src/tb/master//axi_master_monitor.sv(72) @ 1045000: uvm_test_top.axi_master_env_h.axi_master_agt.axi_master_mon_h [VALID READY] awvalid = 0, awready = 1
# UVM_INFO ../../src/tb/master//axi_master_monitor.sv(72) @ 1045000: uvm_test_top.axi_master_env_h.axi_master_agt.axi_master_mon_h [VALID READY] awvalid = 0, awready = 1
# UVM_INFO ../../src/tb/master//axi_master_monitor.sv(72) @ 1055000: uvm_test_top.axi_master_env_h.axi_master_agt.axi_master_mon_h [VALID READY] awvalid = 0, awready = 1
# UVM_INFO ../../src/tb/master//axi_master_monitor.sv(72) @ 1055000: uvm_test_top.axi_master_env_h.axi_master_agt.axi_master_mon_h [VALID READY] awvalid = 0, awready = 1
# UVM_INFO ../../src/tb/master//axi_master_monitor.sv(72) @ 1065000: uvm_test_top.axi_master_env_h.axi_master_agt.axi_master_mon_h [VALID READY] awvalid = 0, awready = 1
# UVM_INFO ../../src/tb/master//axi_master_monitor.sv(72) @ 1065000: uvm_test_top.axi_master_env_h.axi_master_agt.axi_master_mon_h [VALID READY] awvalid = 0, awready = 1
# UVM_INFO ../../src/tb/master//axi_master_monitor.sv(72) @ 1075000: uvm_test_top.axi_master_env_h.axi_master_agt.axi_master_mon_h [VALID READY] awvalid = 0, awready = 1
# UVM_INFO ../../src/tb/master//axi_master_monitor.sv(72) @ 1075000: uvm_test_top.axi_master_env_h.axi_master_agt.axi_master_mon_h [VALID READY] awvalid = 0, awready = 1
# UVM_INFO ../../src/tb/master//axi_master_monitor.sv(72) @ 1085000: uvm_test_top.axi_master_env_h.axi_master_agt.axi_master_mon_h [VALID READY] awvalid = 0, awready = 1
# UVM_INFO ../../src/tb/master//axi_master_monitor.sv(72) @ 1085000: uvm_test_top.axi_master_env_h.axi_master_agt.axi_master_mon_h [VALID READY] awvalid = 0, awready = 1
# UVM_INFO ../../src/tb/master//axi_master_monitor.sv(72) @ 1095000: uvm_test_top.axi_master_env_h.axi_master_agt.axi_master_mon_h [VALID READY] awvalid = 0, awready = 1
# UVM_INFO ../../src/tb/master//axi_master_monitor.sv(72) @ 1095000: uvm_test_top.axi_master_env_h.axi_master_agt.axi_master_mon_h [VALID READY] awvalid = 0, awready = 1
# UVM_INFO ../../src/tb/master//axi_master_monitor.sv(72) @ 1105000: uvm_test_top.axi_master_env_h.axi_master_agt.axi_master_mon_h [VALID READY] awvalid = 0, awready = 1
# UVM_INFO ../../src/tb/master//axi_master_monitor.sv(72) @ 1105000: uvm_test_top.axi_master_env_h.axi_master_agt.axi_master_mon_h [VALID READY] awvalid = 0, awready = 1
# UVM_INFO ../../src/tb/master//axi_master_monitor.sv(72) @ 1115000: uvm_test_top.axi_master_env_h.axi_master_agt.axi_master_mon_h [VALID READY] awvalid = 0, awready = 1
# UVM_INFO ../../src/tb/master//axi_master_monitor.sv(72) @ 1115000: uvm_test_top.axi_master_env_h.axi_master_agt.axi_master_mon_h [VALID READY] awvalid = 0, awready = 1
# UVM_INFO ../../src/tb/master//axi_master_monitor.sv(72) @ 1125000: uvm_test_top.axi_master_env_h.axi_master_agt.axi_master_mon_h [VALID READY] awvalid = 0, awready = 1
# UVM_INFO ../../src/tb/master//axi_master_monitor.sv(72) @ 1125000: uvm_test_top.axi_master_env_h.axi_master_agt.axi_master_mon_h [VALID READY] awvalid = 0, awready = 1
# UVM_INFO ../../src/tb/master//axi_master_monitor.sv(72) @ 1135000: uvm_test_top.axi_master_env_h.axi_master_agt.axi_master_mon_h [VALID READY] awvalid = 0, awready = 1
# UVM_INFO ../../src/tb/master//axi_master_monitor.sv(72) @ 1135000: uvm_test_top.axi_master_env_h.axi_master_agt.axi_master_mon_h [VALID READY] awvalid = 0, awready = 1
# UVM_INFO ../../src/tb/master//axi_master_monitor.sv(72) @ 1145000: uvm_test_top.axi_master_env_h.axi_master_agt.axi_master_mon_h [VALID READY] awvalid = 0, awready = 1
# UVM_INFO ../../src/tb/master//axi_master_monitor.sv(72) @ 1145000: uvm_test_top.axi_master_env_h.axi_master_agt.axi_master_mon_h [VALID READY] awvalid = 0, awready = 1
# UVM_INFO ../../src/tb/master//axi_master_monitor.sv(72) @ 1155000: uvm_test_top.axi_master_env_h.axi_master_agt.axi_master_mon_h [VALID READY] awvalid = 0, awready = 1
# UVM_INFO ../../src/tb/master//axi_master_monitor.sv(72) @ 1155000: uvm_test_top.axi_master_env_h.axi_master_agt.axi_master_mon_h [VALID READY] awvalid = 0, awready = 1
# UVM_INFO ../../src/tb/master//axi_master_monitor.sv(72) @ 1165000: uvm_test_top.axi_master_env_h.axi_master_agt.axi_master_mon_h [VALID READY] awvalid = 0, awready = 1
# UVM_INFO ../../src/tb/master//axi_master_monitor.sv(72) @ 1165000: uvm_test_top.axi_master_env_h.axi_master_agt.axi_master_mon_h [VALID READY] awvalid = 0, awready = 1
# UVM_INFO ../../src/tb/master//axi_master_monitor.sv(72) @ 1175000: uvm_test_top.axi_master_env_h.axi_master_agt.axi_master_mon_h [VALID READY] awvalid = 0, awready = 1
# UVM_INFO ../../src/tb/master//axi_master_monitor.sv(72) @ 1175000: uvm_test_top.axi_master_env_h.axi_master_agt.axi_master_mon_h [VALID READY] awvalid = 0, awready = 1
# UVM_INFO ../../src/tb/master//axi_master_monitor.sv(72) @ 1185000: uvm_test_top.axi_master_env_h.axi_master_agt.axi_master_mon_h [VALID READY] awvalid = 0, awready = 1
# UVM_INFO ../../src/tb/master//axi_master_monitor.sv(72) @ 1185000: uvm_test_top.axi_master_env_h.axi_master_agt.axi_master_mon_h [VALID READY] awvalid = 0, awready = 1
# UVM_INFO ../../src/tb/master//axi_master_monitor.sv(72) @ 1195000: uvm_test_top.axi_master_env_h.axi_master_agt.axi_master_mon_h [VALID READY] awvalid = 0, awready = 1
# UVM_INFO ../../src/tb/master//axi_master_monitor.sv(72) @ 1195000: uvm_test_top.axi_master_env_h.axi_master_agt.axi_master_mon_h [VALID READY] awvalid = 0, awready = 1
# UVM_INFO ../../src/tb/master//axi_master_monitor.sv(72) @ 1205000: uvm_test_top.axi_master_env_h.axi_master_agt.axi_master_mon_h [VALID READY] awvalid = 0, awready = 1
# UVM_INFO ../../src/tb/master//axi_master_monitor.sv(72) @ 1205000: uvm_test_top.axi_master_env_h.axi_master_agt.axi_master_mon_h [VALID READY] awvalid = 0, awready = 1
# UVM_INFO ../../src/tb/master//axi_master_monitor.sv(72) @ 1215000: uvm_test_top.axi_master_env_h.axi_master_agt.axi_master_mon_h [VALID READY] awvalid = 0, awready = 1
# UVM_INFO ../../src/tb/master//axi_master_monitor.sv(72) @ 1215000: uvm_test_top.axi_master_env_h.axi_master_agt.axi_master_mon_h [VALID READY] awvalid = 0, awready = 1
# UVM_INFO ../../src/tb/master//axi_master_monitor.sv(72) @ 1225000: uvm_test_top.axi_master_env_h.axi_master_agt.axi_master_mon_h [VALID READY] awvalid = 0, awready = 1
# UVM_INFO ../../src/tb/master//axi_master_monitor.sv(72) @ 1225000: uvm_test_top.axi_master_env_h.axi_master_agt.axi_master_mon_h [VALID READY] awvalid = 0, awready = 1
# UVM_INFO ../../src/tb/master//axi_master_monitor.sv(72) @ 1235000: uvm_test_top.axi_master_env_h.axi_master_agt.axi_master_mon_h [VALID READY] awvalid = 0, awready = 1
# UVM_INFO ../../src/tb/master//axi_master_monitor.sv(72) @ 1235000: uvm_test_top.axi_master_env_h.axi_master_agt.axi_master_mon_h [VALID READY] awvalid = 0, awready = 1
# UVM_INFO ../../src/tb/master//axi_master_monitor.sv(72) @ 1245000: uvm_test_top.axi_master_env_h.axi_master_agt.axi_master_mon_h [VALID READY] awvalid = 0, awready = 1
# UVM_INFO ../../src/tb/master//axi_master_monitor.sv(72) @ 1245000: uvm_test_top.axi_master_env_h.axi_master_agt.axi_master_mon_h [VALID READY] awvalid = 0, awready = 1
# UVM_INFO ../../src/tb/master//axi_master_monitor.sv(72) @ 1255000: uvm_test_top.axi_master_env_h.axi_master_agt.axi_master_mon_h [VALID READY] awvalid = 0, awready = 1
# UVM_INFO ../../src/tb/master//axi_master_monitor.sv(72) @ 1255000: uvm_test_top.axi_master_env_h.axi_master_agt.axi_master_mon_h [VALID READY] awvalid = 0, awready = 1
# UVM_INFO ../../src/tb/master//axi_master_monitor.sv(72) @ 1265000: uvm_test_top.axi_master_env_h.axi_master_agt.axi_master_mon_h [VALID READY] awvalid = 0, awready = 1
# UVM_INFO ../../src/tb/master//axi_master_monitor.sv(72) @ 1265000: uvm_test_top.axi_master_env_h.axi_master_agt.axi_master_mon_h [VALID READY] awvalid = 0, awready = 1
# UVM_INFO ../../src/tb/master//axi_master_monitor.sv(72) @ 1275000: uvm_test_top.axi_master_env_h.axi_master_agt.axi_master_mon_h [VALID READY] awvalid = 0, awready = 1
# UVM_INFO ../../src/tb/master//axi_master_monitor.sv(72) @ 1275000: uvm_test_top.axi_master_env_h.axi_master_agt.axi_master_mon_h [VALID READY] awvalid = 0, awready = 1
# UVM_INFO ../../src/tb/master//axi_master_monitor.sv(72) @ 1285000: uvm_test_top.axi_master_env_h.axi_master_agt.axi_master_mon_h [VALID READY] awvalid = 0, awready = 1
# UVM_INFO ../../src/tb/master//axi_master_monitor.sv(72) @ 1285000: uvm_test_top.axi_master_env_h.axi_master_agt.axi_master_mon_h [VALID READY] awvalid = 0, awready = 1
# UVM_INFO ../../src/tb/master//axi_master_monitor.sv(72) @ 1295000: uvm_test_top.axi_master_env_h.axi_master_agt.axi_master_mon_h [VALID READY] awvalid = 0, awready = 1
